!JTI P/N: 0868LP15A020
!Agilent N5230A: A.07.11.03
!Date: Thursday, February 07, 2008 08:57:00
!Correction: S11(Full 2 Port(1,2)) 
!S21(Full 2 Port(1,2)) 
!S12(Full 2 Port(1,2)) 
!S22(Full 2 Port(1,2)) 
!S2P File: Measurements: S11, S21, S12, S22:

# Hz S  dB   R 50
50000000 -3.045749e+001 -9.188445e+001 -1.168453e-001 -6.146941e+000 -1.342713e-001 -6.187869e+000 -3.035056e+001 -8.085299e+001
53093750 -2.989546e+001 -9.171077e+001 -1.216928e-001 -6.481845e+000 -1.477276e-001 -6.551749e+000 -2.968800e+001 -8.202299e+001
56187500 -2.937661e+001 -9.197432e+001 -1.217295e-001 -6.818019e+000 -1.461671e-001 -6.915606e+000 -2.913945e+001 -8.344300e+001
59281250 -2.885114e+001 -9.189536e+001 -1.256058e-001 -7.219466e+000 -1.498019e-001 -7.245902e+000 -2.863425e+001 -8.477596e+001
62375000 -2.838008e+001 -9.258740e+001 -1.232152e-001 -7.649499e+000 -1.443687e-001 -7.581602e+000 -2.816249e+001 -8.614337e+001
65468750 -2.788444e+001 -9.328898e+001 -1.189284e-001 -8.006721e+000 -1.450592e-001 -7.977317e+000 -2.771332e+001 -8.755080e+001
68562500 -2.752047e+001 -9.361824e+001 -1.218244e-001 -8.363390e+000 -1.396705e-001 -8.411484e+000 -2.727299e+001 -8.860826e+001
71656250 -2.709562e+001 -9.395770e+001 -1.152144e-001 -8.725116e+000 -1.415038e-001 -8.726529e+000 -2.691300e+001 -8.958963e+001
74750000 -2.680774e+001 -9.484528e+001 -1.244511e-001 -9.112197e+000 -1.433770e-001 -9.135962e+000 -2.661872e+001 -9.067916e+001
77843750 -2.643096e+001 -9.524688e+001 -1.234261e-001 -9.493331e+000 -1.536226e-001 -9.552118e+000 -2.628114e+001 -9.108504e+001
80937500 -2.609070e+001 -9.548112e+001 -1.272978e-001 -9.870807e+000 -1.508050e-001 -9.895104e+000 -2.594355e+001 -9.147035e+001
84031250 -2.579202e+001 -9.583105e+001 -1.390168e-001 -1.021017e+001 -1.536190e-001 -1.026176e+001 -2.560861e+001 -9.195609e+001
87125000 -2.546984e+001 -9.591181e+001 -1.363152e-001 -1.060512e+001 -1.646936e-001 -1.062133e+001 -2.532978e+001 -9.244268e+001
90218750 -2.514835e+001 -9.627248e+001 -1.394273e-001 -1.093827e+001 -1.630087e-001 -1.099652e+001 -2.508847e+001 -9.308434e+001
93312500 -2.486463e+001 -9.632185e+001 -1.361942e-001 -1.138965e+001 -1.605890e-001 -1.135427e+001 -2.477084e+001 -9.354373e+001
96406250 -2.458504e+001 -9.627833e+001 -1.478797e-001 -1.174917e+001 -1.562664e-001 -1.175771e+001 -2.455571e+001 -9.391357e+001
99500000 -2.433340e+001 -9.639232e+001 -1.501844e-001 -1.210335e+001 -1.667748e-001 -1.209132e+001 -2.432842e+001 -9.420179e+001
102593750 -2.403447e+001 -9.673370e+001 -1.538735e-001 -1.247153e+001 -1.597306e-001 -1.244418e+001 -2.397043e+001 -9.467823e+001
105687500 -2.374661e+001 -9.739227e+001 -1.511317e-001 -1.284506e+001 -1.594730e-001 -1.282962e+001 -2.369686e+001 -9.538777e+001
108781250 -2.351260e+001 -9.808135e+001 -1.496859e-001 -1.323007e+001 -1.674521e-001 -1.312875e+001 -2.340331e+001 -9.614651e+001
111875000 -2.326944e+001 -9.864722e+001 -1.513268e-001 -1.353262e+001 -1.635136e-001 -1.352965e+001 -2.315989e+001 -9.663969e+001
114968750 -2.298827e+001 -9.926150e+001 -1.469018e-001 -1.392886e+001 -1.557975e-001 -1.388810e+001 -2.289917e+001 -9.760442e+001
118062500 -2.276512e+001 -9.980946e+001 -1.403805e-001 -1.428069e+001 -1.638107e-001 -1.427526e+001 -2.271495e+001 -9.810320e+001
121156250 -2.251634e+001 -1.004022e+002 -1.442050e-001 -1.468860e+001 -1.654485e-001 -1.464499e+001 -2.249920e+001 -9.881664e+001
124250000 -2.231466e+001 -1.006793e+002 -1.622746e-001 -1.499853e+001 -1.819548e-001 -1.499213e+001 -2.234469e+001 -9.931278e+001
127343750 -2.216464e+001 -1.008659e+002 -1.981179e-001 -1.531061e+001 -2.212336e-001 -1.526742e+001 -2.217494e+001 -9.937694e+001
130437500 -2.198083e+001 -1.009809e+002 -2.131632e-001 -1.554539e+001 -2.400818e-001 -1.556199e+001 -2.197828e+001 -9.952546e+001
133531250 -2.180890e+001 -1.012206e+002 -2.095784e-001 -1.586768e+001 -2.280033e-001 -1.591022e+001 -2.176003e+001 -9.974843e+001
136625000 -2.157858e+001 -1.018924e+002 -1.752117e-001 -1.640618e+001 -2.110888e-001 -1.644663e+001 -2.149636e+001 -1.003268e+002
139718750 -2.138728e+001 -1.021183e+002 -1.738129e-001 -1.641679e+001 -2.047009e-001 -1.645211e+001 -2.132509e+001 -1.004721e+002
142812500 -2.117196e+001 -1.026011e+002 -1.524753e-001 -1.661403e+001 -1.735727e-001 -1.675673e+001 -2.111457e+001 -1.009130e+002
145906250 -2.097419e+001 -1.036437e+002 -1.381284e-001 -1.723830e+001 -1.612641e-001 -1.736973e+001 -2.096384e+001 -1.014404e+002
149000000 -2.080623e+001 -1.042642e+002 -1.664722e-001 -1.786553e+001 -1.826344e-001 -1.790322e+001 -2.082084e+001 -1.019837e+002
152093750 -2.063485e+001 -1.053259e+002 -1.957817e-001 -1.868249e+001 -1.584383e-001 -1.896093e+001 -2.068318e+001 -1.027715e+002
155187500 -2.044185e+001 -1.058305e+002 -2.055144e-001 -1.914040e+001 -1.480592e-001 -1.966762e+001 -2.051090e+001 -1.033047e+002
158281250 -2.029871e+001 -1.060292e+002 -2.120169e-001 -1.930563e+001 -1.668538e-001 -1.970200e+001 -2.033546e+001 -1.034732e+002
161375000 -2.018237e+001 -1.061675e+002 -1.931570e-001 -1.943766e+001 -1.958989e-001 -1.955938e+001 -2.014280e+001 -1.041193e+002
164468750 -2.006058e+001 -1.061426e+002 -1.746383e-001 -1.991777e+001 -2.674708e-001 -1.967897e+001 -1.995360e+001 -1.048188e+002
167562500 -1.995640e+001 -1.061840e+002 -1.643910e-001 -2.045786e+001 -2.934944e-001 -1.988320e+001 -1.976964e+001 -1.056763e+002
170656250 -1.976155e+001 -1.064659e+002 -1.611913e-001 -2.082229e+001 -2.727412e-001 -2.014253e+001 -1.965653e+001 -1.061336e+002
173750000 -1.958786e+001 -1.070955e+002 -1.902270e-001 -2.091304e+001 -2.341875e-001 -2.084116e+001 -1.953371e+001 -1.062945e+002
176843750 -1.940681e+001 -1.075501e+002 -2.325826e-001 -2.132130e+001 -2.230518e-001 -2.111658e+001 -1.944537e+001 -1.065069e+002
179937500 -1.926606e+001 -1.078519e+002 -2.661072e-001 -2.171109e+001 -2.147316e-001 -2.137193e+001 -1.931398e+001 -1.067387e+002
183031250 -1.914720e+001 -1.082070e+002 -2.605822e-001 -2.193119e+001 -2.268064e-001 -2.183353e+001 -1.916355e+001 -1.067837e+002
186125000 -1.902637e+001 -1.087573e+002 -2.227892e-001 -2.227666e+001 -2.346766e-001 -2.233270e+001 -1.893754e+001 -1.072212e+002
189218750 -1.889506e+001 -1.093746e+002 -2.128085e-001 -2.241685e+001 -2.290395e-001 -2.269334e+001 -1.879456e+001 -1.075604e+002
192312500 -1.877238e+001 -1.097815e+002 -2.140948e-001 -2.261599e+001 -2.304945e-001 -2.307793e+001 -1.867593e+001 -1.079676e+002
195406250 -1.863245e+001 -1.103062e+002 -2.128515e-001 -2.305539e+001 -2.354454e-001 -2.342312e+001 -1.855779e+001 -1.084184e+002
198500000 -1.850176e+001 -1.108445e+002 -2.239206e-001 -2.367630e+001 -2.359468e-001 -2.378516e+001 -1.844704e+001 -1.091816e+002
201593750 -1.837446e+001 -1.110040e+002 -2.202651e-001 -2.406530e+001 -2.450095e-001 -2.416030e+001 -1.832005e+001 -1.096666e+002
204687500 -1.824667e+001 -1.112713e+002 -2.195680e-001 -2.446222e+001 -2.496502e-001 -2.453689e+001 -1.819841e+001 -1.101402e+002
207781250 -1.813103e+001 -1.115847e+002 -2.209573e-001 -2.486699e+001 -2.569552e-001 -2.489950e+001 -1.807856e+001 -1.107202e+002
210875000 -1.800435e+001 -1.117107e+002 -2.277348e-001 -2.524746e+001 -2.483488e-001 -2.531688e+001 -1.795775e+001 -1.113304e+002
213968750 -1.790297e+001 -1.121134e+002 -2.341198e-001 -2.574855e+001 -2.662398e-001 -2.571905e+001 -1.786384e+001 -1.118376e+002
217062500 -1.778586e+001 -1.125423e+002 -2.245684e-001 -2.620094e+001 -2.654002e-001 -2.613075e+001 -1.775229e+001 -1.120335e+002
220156250 -1.767575e+001 -1.129750e+002 -2.333896e-001 -2.650569e+001 -2.680377e-001 -2.644941e+001 -1.763731e+001 -1.123058e+002
223250000 -1.758364e+001 -1.130613e+002 -2.432960e-001 -2.676299e+001 -2.635224e-001 -2.673455e+001 -1.752342e+001 -1.125729e+002
226343750 -1.749891e+001 -1.134414e+002 -2.406553e-001 -2.711313e+001 -2.633340e-001 -2.710203e+001 -1.741922e+001 -1.130015e+002
229437500 -1.741258e+001 -1.139018e+002 -2.432816e-001 -2.750355e+001 -2.643656e-001 -2.750490e+001 -1.731787e+001 -1.136269e+002
232531250 -1.734262e+001 -1.142202e+002 -2.516000e-001 -2.786415e+001 -2.684769e-001 -2.785948e+001 -1.724389e+001 -1.140264e+002
235625000 -1.725272e+001 -1.143626e+002 -2.442015e-001 -2.817671e+001 -2.690927e-001 -2.822716e+001 -1.716456e+001 -1.144466e+002
238718750 -1.715146e+001 -1.147132e+002 -2.497142e-001 -2.856391e+001 -2.741834e-001 -2.855061e+001 -1.706988e+001 -1.146095e+002
241812500 -1.705040e+001 -1.149215e+002 -2.582256e-001 -2.886025e+001 -2.775335e-001 -2.889631e+001 -1.698148e+001 -1.150322e+002
244906250 -1.695539e+001 -1.153152e+002 -2.650760e-001 -2.922762e+001 -2.828244e-001 -2.927272e+001 -1.689514e+001 -1.154160e+002
248000000 -1.686695e+001 -1.156919e+002 -2.679122e-001 -2.962077e+001 -2.781555e-001 -2.962370e+001 -1.679750e+001 -1.158203e+002
251093750 -1.675003e+001 -1.159769e+002 -2.613683e-001 -2.992199e+001 -2.846016e-001 -3.000663e+001 -1.672223e+001 -1.162675e+002
254187500 -1.665768e+001 -1.163448e+002 -2.781624e-001 -3.022182e+001 -2.920761e-001 -3.030041e+001 -1.662819e+001 -1.166168e+002
257281250 -1.656487e+001 -1.168753e+002 -2.827338e-001 -3.061459e+001 -2.927971e-001 -3.072334e+001 -1.653485e+001 -1.170389e+002
260375000 -1.645324e+001 -1.173839e+002 -2.718008e-001 -3.100573e+001 -2.925808e-001 -3.105308e+001 -1.646637e+001 -1.174062e+002
263468750 -1.639306e+001 -1.177752e+002 -2.848737e-001 -3.128268e+001 -2.937758e-001 -3.143651e+001 -1.637021e+001 -1.179117e+002
266562500 -1.632117e+001 -1.182308e+002 -2.817589e-001 -3.168776e+001 -2.922561e-001 -3.179771e+001 -1.629992e+001 -1.183818e+002
269656250 -1.626630e+001 -1.185884e+002 -2.797159e-001 -3.202122e+001 -2.977525e-001 -3.213542e+001 -1.622929e+001 -1.188545e+002
272750000 -1.619422e+001 -1.189190e+002 -2.843300e-001 -3.249771e+001 -3.080002e-001 -3.253498e+001 -1.615522e+001 -1.192894e+002
275843750 -1.612559e+001 -1.191576e+002 -2.876618e-001 -3.284428e+001 -3.119367e-001 -3.293680e+001 -1.608362e+001 -1.197740e+002
278937500 -1.603983e+001 -1.195102e+002 -2.809455e-001 -3.325685e+001 -3.044482e-001 -3.335591e+001 -1.600452e+001 -1.202851e+002
282031250 -1.598480e+001 -1.199745e+002 -2.922101e-001 -3.368347e+001 -3.113422e-001 -3.373532e+001 -1.594181e+001 -1.207849e+002
285125000 -1.590258e+001 -1.201395e+002 -2.956273e-001 -3.398841e+001 -3.119695e-001 -3.402790e+001 -1.588398e+001 -1.210848e+002
288218750 -1.580725e+001 -1.205846e+002 -2.886101e-001 -3.441901e+001 -3.195807e-001 -3.438094e+001 -1.582636e+001 -1.214586e+002
291312500 -1.576175e+001 -1.211204e+002 -2.971636e-001 -3.494900e+001 -3.141400e-001 -3.478393e+001 -1.574237e+001 -1.219466e+002
294406250 -1.568606e+001 -1.215028e+002 -3.020928e-001 -3.533966e+001 -3.212484e-001 -3.512346e+001 -1.566292e+001 -1.222971e+002
297500000 -1.562501e+001 -1.220403e+002 -3.115169e-001 -3.553504e+001 -3.233598e-001 -3.541309e+001 -1.558784e+001 -1.225077e+002
300593750 -1.556761e+001 -1.222663e+002 -3.040879e-001 -3.575547e+001 -3.264899e-001 -3.578402e+001 -1.552155e+001 -1.228049e+002
303687500 -1.550632e+001 -1.225856e+002 -2.990218e-001 -3.625616e+001 -3.402689e-001 -3.611735e+001 -1.545531e+001 -1.231034e+002
306781250 -1.544537e+001 -1.230839e+002 -3.012330e-001 -3.662066e+001 -3.428034e-001 -3.651350e+001 -1.538079e+001 -1.233849e+002
309875000 -1.537209e+001 -1.234956e+002 -3.133106e-001 -3.691665e+001 -3.417709e-001 -3.685113e+001 -1.530947e+001 -1.236183e+002
312968750 -1.530270e+001 -1.238096e+002 -3.202117e-001 -3.723803e+001 -3.468447e-001 -3.724708e+001 -1.523766e+001 -1.239057e+002
316062500 -1.523104e+001 -1.242182e+002 -3.302109e-001 -3.751654e+001 -3.445212e-001 -3.761420e+001 -1.513474e+001 -1.242597e+002
319156250 -1.517484e+001 -1.245584e+002 -3.416639e-001 -3.783089e+001 -3.532252e-001 -3.794497e+001 -1.508708e+001 -1.248348e+002
322250000 -1.510883e+001 -1.251027e+002 -3.320386e-001 -3.825928e+001 -3.609599e-001 -3.834792e+001 -1.504434e+001 -1.253514e+002
325343750 -1.505298e+001 -1.255666e+002 -3.341245e-001 -3.869395e+001 -3.583344e-001 -3.867555e+001 -1.501366e+001 -1.258149e+002
328437500 -1.499869e+001 -1.258113e+002 -3.346634e-001 -3.887705e+001 -3.538662e-001 -3.908224e+001 -1.496475e+001 -1.257906e+002
331531250 -1.496808e+001 -1.262391e+002 -3.359440e-001 -3.927356e+001 -3.587615e-001 -3.944466e+001 -1.491181e+001 -1.259532e+002
334625000 -1.491054e+001 -1.265692e+002 -3.236919e-001 -3.970172e+001 -3.567953e-001 -3.983172e+001 -1.484211e+001 -1.264080e+002
337718750 -1.485145e+001 -1.270190e+002 -3.353899e-001 -4.011441e+001 -3.572651e-001 -4.016025e+001 -1.478849e+001 -1.266284e+002
340812500 -1.480236e+001 -1.274460e+002 -3.403623e-001 -4.042425e+001 -3.664703e-001 -4.060795e+001 -1.472874e+001 -1.270288e+002
343906250 -1.474299e+001 -1.278226e+002 -3.467344e-001 -4.071469e+001 -3.752564e-001 -4.094688e+001 -1.467264e+001 -1.273492e+002
347000000 -1.469844e+001 -1.282633e+002 -3.570198e-001 -4.119569e+001 -3.777774e-001 -4.129435e+001 -1.460254e+001 -1.277050e+002
350093750 -1.465053e+001 -1.285056e+002 -3.498960e-001 -4.155988e+001 -3.851643e-001 -4.167884e+001 -1.455601e+001 -1.281944e+002
353187500 -1.459417e+001 -1.287968e+002 -3.490673e-001 -4.191364e+001 -3.849477e-001 -4.203860e+001 -1.449799e+001 -1.287778e+002
356281250 -1.454227e+001 -1.290008e+002 -3.487902e-001 -4.227076e+001 -3.954202e-001 -4.237381e+001 -1.445931e+001 -1.293066e+002
359375000 -1.449361e+001 -1.292438e+002 -3.560610e-001 -4.266123e+001 -3.917384e-001 -4.274887e+001 -1.442343e+001 -1.298006e+002
362468750 -1.445140e+001 -1.296700e+002 -3.688348e-001 -4.308066e+001 -3.915799e-001 -4.311143e+001 -1.439498e+001 -1.302841e+002
365562500 -1.438191e+001 -1.299239e+002 -3.663349e-001 -4.347488e+001 -3.907226e-001 -4.342545e+001 -1.437159e+001 -1.306835e+002
368656250 -1.435000e+001 -1.302709e+002 -3.766532e-001 -4.379862e+001 -3.914515e-001 -4.382070e+001 -1.433845e+001 -1.310801e+002
371750000 -1.429319e+001 -1.307356e+002 -3.772427e-001 -4.419318e+001 -3.864275e-001 -4.415379e+001 -1.429559e+001 -1.314285e+002
374843750 -1.426247e+001 -1.312034e+002 -3.698876e-001 -4.453128e+001 -3.954668e-001 -4.449813e+001 -1.426129e+001 -1.316937e+002
377937500 -1.422056e+001 -1.316465e+002 -3.779702e-001 -4.487770e+001 -3.995057e-001 -4.487309e+001 -1.422983e+001 -1.321228e+002
381031250 -1.419414e+001 -1.320709e+002 -3.764068e-001 -4.521895e+001 -4.014131e-001 -4.528539e+001 -1.418392e+001 -1.325837e+002
384125000 -1.415765e+001 -1.324930e+002 -3.674474e-001 -4.559019e+001 -4.012040e-001 -4.563725e+001 -1.414855e+001 -1.329691e+002
387218750 -1.413678e+001 -1.328266e+002 -3.793190e-001 -4.596502e+001 -4.047044e-001 -4.598245e+001 -1.411201e+001 -1.333337e+002
390312500 -1.411089e+001 -1.331075e+002 -3.833701e-001 -4.633775e+001 -4.078521e-001 -4.628031e+001 -1.408387e+001 -1.336942e+002
393406250 -1.407184e+001 -1.334845e+002 -3.813443e-001 -4.668552e+001 -4.042532e-001 -4.668659e+001 -1.405228e+001 -1.340822e+002
396500000 -1.403753e+001 -1.337246e+002 -3.849754e-001 -4.704403e+001 -4.089480e-001 -4.708492e+001 -1.401903e+001 -1.344482e+002
399593750 -1.401110e+001 -1.340555e+002 -3.928367e-001 -4.742094e+001 -4.115241e-001 -4.746875e+001 -1.397631e+001 -1.348505e+002
402687500 -1.398905e+001 -1.343404e+002 -3.975008e-001 -4.779790e+001 -4.173385e-001 -4.787237e+001 -1.393371e+001 -1.351886e+002
405781250 -1.395759e+001 -1.346847e+002 -3.952785e-001 -4.814979e+001 -4.175839e-001 -4.812778e+001 -1.390255e+001 -1.354968e+002
408875000 -1.392427e+001 -1.350512e+002 -3.965784e-001 -4.850774e+001 -4.128131e-001 -4.857067e+001 -1.384869e+001 -1.359252e+002
411968750 -1.387472e+001 -1.352970e+002 -3.982904e-001 -4.885340e+001 -4.205590e-001 -4.893847e+001 -1.383874e+001 -1.363225e+002
415062500 -1.385319e+001 -1.357761e+002 -4.063044e-001 -4.920620e+001 -4.199122e-001 -4.926848e+001 -1.380610e+001 -1.366466e+002
418156250 -1.382082e+001 -1.361770e+002 -4.049392e-001 -4.954445e+001 -4.287040e-001 -4.967305e+001 -1.378957e+001 -1.371250e+002
421250000 -1.378261e+001 -1.366861e+002 -4.058962e-001 -4.993584e+001 -4.294871e-001 -5.001068e+001 -1.376686e+001 -1.374797e+002
424343750 -1.377083e+001 -1.370358e+002 -4.103931e-001 -5.020269e+001 -4.288730e-001 -5.035006e+001 -1.373251e+001 -1.379012e+002
427437500 -1.374179e+001 -1.374820e+002 -4.053269e-001 -5.064634e+001 -4.281717e-001 -5.072079e+001 -1.371112e+001 -1.383785e+002
430531250 -1.370678e+001 -1.378056e+002 -4.031981e-001 -5.098451e+001 -4.410467e-001 -5.114476e+001 -1.369957e+001 -1.388853e+002
433625000 -1.369191e+001 -1.381649e+002 -4.067141e-001 -5.139135e+001 -4.359620e-001 -5.152289e+001 -1.368122e+001 -1.392298e+002
436718750 -1.367798e+001 -1.384866e+002 -4.126900e-001 -5.174872e+001 -4.375841e-001 -5.190206e+001 -1.366598e+001 -1.397233e+002
439812500 -1.364490e+001 -1.388468e+002 -4.178613e-001 -5.212096e+001 -4.461835e-001 -5.221741e+001 -1.363621e+001 -1.399821e+002
442906250 -1.362575e+001 -1.393178e+002 -4.242980e-001 -5.255958e+001 -4.473373e-001 -5.262592e+001 -1.360727e+001 -1.403430e+002
446000000 -1.359072e+001 -1.395993e+002 -4.187849e-001 -5.292251e+001 -4.492241e-001 -5.300984e+001 -1.358339e+001 -1.407009e+002
449093750 -1.358297e+001 -1.399375e+002 -4.287052e-001 -5.331472e+001 -4.554917e-001 -5.335673e+001 -1.357566e+001 -1.411040e+002
452187500 -1.357235e+001 -1.402410e+002 -4.202354e-001 -5.367950e+001 -4.538877e-001 -5.376368e+001 -1.356841e+001 -1.414120e+002
455281250 -1.355879e+001 -1.405237e+002 -4.256983e-001 -5.407137e+001 -4.554380e-001 -5.413963e+001 -1.355279e+001 -1.416429e+002
458375000 -1.354767e+001 -1.407484e+002 -4.242522e-001 -5.445551e+001 -4.541053e-001 -5.448128e+001 -1.352896e+001 -1.419472e+002
461468750 -1.353279e+001 -1.409676e+002 -4.262168e-001 -5.480153e+001 -4.568215e-001 -5.487514e+001 -1.351078e+001 -1.423325e+002
464562500 -1.351056e+001 -1.413528e+002 -4.300917e-001 -5.515206e+001 -4.574761e-001 -5.525315e+001 -1.349409e+001 -1.429231e+002
467656250 -1.350122e+001 -1.417226e+002 -4.435416e-001 -5.552837e+001 -4.509974e-001 -5.560216e+001 -1.348862e+001 -1.433013e+002
470750000 -1.348756e+001 -1.421719e+002 -4.438471e-001 -5.594773e+001 -4.522542e-001 -5.600558e+001 -1.346804e+001 -1.438073e+002
473843750 -1.346711e+001 -1.425306e+002 -4.457193e-001 -5.628282e+001 -4.523111e-001 -5.634186e+001 -1.345948e+001 -1.441135e+002
476937500 -1.346023e+001 -1.430075e+002 -4.492844e-001 -5.671364e+001 -4.584335e-001 -5.667827e+001 -1.345447e+001 -1.444454e+002
480031250 -1.344244e+001 -1.433153e+002 -4.540958e-001 -5.704300e+001 -4.581386e-001 -5.707243e+001 -1.344872e+001 -1.448631e+002
483125000 -1.344156e+001 -1.437576e+002 -4.626241e-001 -5.746729e+001 -4.647687e-001 -5.745324e+001 -1.344141e+001 -1.452029e+002
486218750 -1.341999e+001 -1.440568e+002 -4.559699e-001 -5.784056e+001 -4.703883e-001 -5.776788e+001 -1.343204e+001 -1.455386e+002
489312500 -1.341397e+001 -1.444439e+002 -4.613204e-001 -5.820025e+001 -4.713809e-001 -5.819353e+001 -1.341437e+001 -1.459620e+002
492406250 -1.341538e+001 -1.447807e+002 -4.611178e-001 -5.861428e+001 -4.797975e-001 -5.857167e+001 -1.340295e+001 -1.463193e+002
495500000 -1.339725e+001 -1.452342e+002 -4.557860e-001 -5.899657e+001 -4.765733e-001 -5.890413e+001 -1.338436e+001 -1.467244e+002
498593750 -1.339389e+001 -1.454582e+002 -4.624644e-001 -5.943550e+001 -4.765504e-001 -5.927380e+001 -1.336622e+001 -1.470950e+002
501687500 -1.339957e+001 -1.458030e+002 -4.594766e-001 -5.976701e+001 -4.843784e-001 -5.962044e+001 -1.337232e+001 -1.475289e+002
504781250 -1.339899e+001 -1.461802e+002 -4.653372e-001 -6.015125e+001 -4.816136e-001 -6.003770e+001 -1.338024e+001 -1.479310e+002
507875000 -1.341724e+001 -1.464179e+002 -4.622826e-001 -6.046048e+001 -4.786429e-001 -6.043089e+001 -1.338254e+001 -1.483255e+002
510968750 -1.340628e+001 -1.467564e+002 -4.543762e-001 -6.081799e+001 -4.765778e-001 -6.080027e+001 -1.338465e+001 -1.486280e+002
514062500 -1.342154e+001 -1.471082e+002 -4.582637e-001 -6.117861e+001 -4.752270e-001 -6.117513e+001 -1.338586e+001 -1.490612e+002
