!P/N: 0915LP15B026
!Agilent N5230A: A.07.50.37
!Date: Monday, July 06, 2009 12:03:36
!Correction: S11(Full 2 Port(1,2)) 
!S21(Full 2 Port(1,2)) 
!S12(Full 2 Port(1,2)) 
!S22(Full 2 Port(1,2)) 
!S2P File: Measurements: S11, S21, S12, S22:
# Hz S  dB   R 50
300000 -4.589228e+001 1.665432e+001 -1.096229e-001 -1.674009e-001 -1.375244e-001 -2.568420e-001 -4.761354e+001 4.444083e+001
9674812.5 -1.202359e+001 1.256397e+002 -2.548100e-001 -7.783905e+000 -2.961914e-001 -7.605738e+000 -1.033664e+001 1.257634e+002
19049625 -3.952804e+001 -4.926464e+001 -1.144026e-001 -2.398410e+000 -1.087789e-001 -2.500158e+000 -4.004344e+001 -4.028825e+001
28424437.5 -3.636594e+001 -6.431759e+001 -1.162863e-001 -3.549621e+000 -1.228756e-001 -3.516442e+000 -3.761380e+001 -5.616278e+001
37799250 -3.402434e+001 -7.087462e+001 -1.175980e-001 -4.602710e+000 -1.257187e-001 -4.592966e+000 -3.558049e+001 -6.732819e+001
47174062.5 -3.190954e+001 -7.553713e+001 -1.259352e-001 -5.704124e+000 -1.449873e-001 -5.651962e+000 -3.341704e+001 -7.105750e+001
56548875 -3.021837e+001 -8.075427e+001 -1.358654e-001 -6.687887e+000 -1.435059e-001 -6.726454e+000 -3.175945e+001 -7.646427e+001
65923687.5 -2.896668e+001 -8.462447e+001 -1.423604e-001 -7.777254e+000 -1.391426e-001 -7.816346e+000 -3.030239e+001 -8.204245e+001
75298500 -2.805944e+001 -8.776741e+001 -1.484964e-001 -8.911651e+000 -1.442529e-001 -8.861443e+000 -2.922352e+001 -8.612491e+001
84673312.5 -2.697342e+001 -8.971072e+001 -1.482973e-001 -1.000063e+001 -1.537413e-001 -9.948888e+000 -2.788629e+001 -8.709394e+001
94048125 -2.619521e+001 -9.195313e+001 -1.563645e-001 -1.105777e+001 -1.609641e-001 -1.108667e+001 -2.684590e+001 -8.889925e+001
103422937.5 -2.551512e+001 -9.360867e+001 -1.547904e-001 -1.209694e+001 -1.580513e-001 -1.215026e+001 -2.594981e+001 -9.013777e+001
112797750 -2.493419e+001 -9.528153e+001 -1.666967e-001 -1.319205e+001 -1.730407e-001 -1.314223e+001 -2.515596e+001 -9.230942e+001
122172562.5 -2.428609e+001 -9.654482e+001 -1.578212e-001 -1.421996e+001 -1.614965e-001 -1.423745e+001 -2.435539e+001 -9.395480e+001
131547375 -2.363663e+001 -9.815160e+001 -2.362449e-001 -1.500172e+001 -2.406323e-001 -1.498585e+001 -2.375605e+001 -9.425372e+001
140922187.5 -2.301877e+001 -1.002215e+002 -1.477485e-001 -1.599404e+001 -1.692280e-001 -1.602721e+001 -2.300396e+001 -9.641189e+001
150297000 -2.254504e+001 -1.009897e+002 -1.849900e-001 -1.735698e+001 -1.839853e-001 -1.747068e+001 -2.259002e+001 -9.798940e+001
159671812.5 -2.199486e+001 -1.026662e+002 -2.113426e-001 -1.873845e+001 -1.591455e-001 -1.918662e+001 -2.214281e+001 -9.922475e+001
169046625 -2.156579e+001 -1.029418e+002 -1.571657e-001 -1.998898e+001 -2.697817e-001 -1.913834e+001 -2.162034e+001 -1.012380e+002
178421437.5 -2.103683e+001 -1.048934e+002 -2.628330e-001 -2.072053e+001 -2.112485e-001 -2.048118e+001 -2.129886e+001 -1.022772e+002
187796250 -2.068128e+001 -1.063303e+002 -2.163974e-001 -2.172796e+001 -2.161808e-001 -2.169597e+001 -2.084413e+001 -1.037139e+002
197171062.5 -2.019862e+001 -1.074120e+002 -2.057435e-001 -2.246558e+001 -2.189223e-001 -2.279900e+001 -2.038339e+001 -1.043640e+002
206545875 -1.978810e+001 -1.088112e+002 -2.179803e-001 -2.380556e+001 -2.303159e-001 -2.384998e+001 -2.015542e+001 -1.060873e+002
215920687.5 -1.940530e+001 -1.101672e+002 -2.217682e-001 -2.503184e+001 -2.333755e-001 -2.498783e+001 -1.976561e+001 -1.073793e+002
225295500 -1.905774e+001 -1.110833e+002 -2.354385e-001 -2.593916e+001 -2.441764e-001 -2.596336e+001 -1.941437e+001 -1.090101e+002
234670312.5 -1.876242e+001 -1.121603e+002 -2.341936e-001 -2.703935e+001 -2.639792e-001 -2.701067e+001 -1.914726e+001 -1.104955e+002
244045125 -1.844898e+001 -1.137948e+002 -2.565845e-001 -2.808557e+001 -2.620922e-001 -2.808152e+001 -1.884364e+001 -1.114750e+002
253419937.5 -1.818162e+001 -1.151075e+002 -2.533475e-001 -2.905602e+001 -2.712455e-001 -2.908248e+001 -1.851726e+001 -1.127200e+002
262794750 -1.797307e+001 -1.160591e+002 -2.637333e-001 -3.022052e+001 -2.735486e-001 -3.014388e+001 -1.830198e+001 -1.138273e+002
272169562.5 -1.769459e+001 -1.176788e+002 -2.721632e-001 -3.116938e+001 -2.880730e-001 -3.124352e+001 -1.810739e+001 -1.147760e+002
281544375 -1.754773e+001 -1.187810e+002 -2.672206e-001 -3.234593e+001 -2.771587e-001 -3.237939e+001 -1.784906e+001 -1.160870e+002
290919187.5 -1.735678e+001 -1.200319e+002 -2.717184e-001 -3.359662e+001 -2.766199e-001 -3.340139e+001 -1.762713e+001 -1.173104e+002
300294000 -1.716140e+001 -1.212433e+002 -2.814370e-001 -3.440949e+001 -2.845662e-001 -3.447736e+001 -1.741418e+001 -1.183052e+002
309668812.5 -1.699716e+001 -1.220871e+002 -2.887361e-001 -3.554387e+001 -3.016050e-001 -3.555328e+001 -1.717311e+001 -1.195299e+002
319043625 -1.682202e+001 -1.233440e+002 -3.179447e-001 -3.648614e+001 -3.136344e-001 -3.655183e+001 -1.702602e+001 -1.201455e+002
328418437.5 -1.661484e+001 -1.246093e+002 -3.103229e-001 -3.750822e+001 -3.208749e-001 -3.764035e+001 -1.680416e+001 -1.213000e+002
337793250 -1.645318e+001 -1.262039e+002 -3.204118e-001 -3.873639e+001 -3.255775e-001 -3.873744e+001 -1.666587e+001 -1.222767e+002
347168062.5 -1.621681e+001 -1.274309e+002 -3.278188e-001 -3.970527e+001 -3.386877e-001 -3.985299e+001 -1.643210e+001 -1.235533e+002
356542875 -1.605568e+001 -1.287046e+002 -3.231080e-001 -4.078710e+001 -3.479199e-001 -4.084415e+001 -1.629463e+001 -1.249313e+002
365917687.5 -1.592294e+001 -1.302256e+002 -3.394233e-001 -4.191502e+001 -3.456915e-001 -4.190116e+001 -1.613555e+001 -1.258558e+002
375292500 -1.587397e+001 -1.310851e+002 -3.379419e-001 -4.298508e+001 -3.554383e-001 -4.299757e+001 -1.596262e+001 -1.270958e+002
384667312.5 -1.570727e+001 -1.323788e+002 -3.547621e-001 -4.401570e+001 -3.666198e-001 -4.402272e+001 -1.583320e+001 -1.283737e+002
394042125 -1.557270e+001 -1.336167e+002 -3.646766e-001 -4.511638e+001 -3.716619e-001 -4.509571e+001 -1.571435e+001 -1.293468e+002
403416937.5 -1.547023e+001 -1.349537e+002 -3.593364e-001 -4.621899e+001 -3.748969e-001 -4.625875e+001 -1.558342e+001 -1.304659e+002
412791750 -1.539262e+001 -1.358865e+002 -3.637010e-001 -4.720473e+001 -3.674134e-001 -4.729982e+001 -1.552502e+001 -1.314203e+002
422166562.5 -1.532592e+001 -1.372806e+002 -3.789254e-001 -4.833292e+001 -3.820957e-001 -4.836456e+001 -1.543210e+001 -1.321235e+002
431541375 -1.523220e+001 -1.387188e+002 -3.757440e-001 -4.937389e+001 -3.813639e-001 -4.944973e+001 -1.531759e+001 -1.326684e+002
440916187.5 -1.518356e+001 -1.397722e+002 -3.802010e-001 -5.054992e+001 -3.871940e-001 -5.060416e+001 -1.526715e+001 -1.339814e+002
450291000 -1.512035e+001 -1.405900e+002 -3.930466e-001 -5.168945e+001 -3.930629e-001 -5.164198e+001 -1.527359e+001 -1.347132e+002
459665812.5 -1.509104e+001 -1.407395e+002 -3.859774e-001 -5.281731e+001 -3.929447e-001 -5.276057e+001 -1.528292e+001 -1.358577e+002
469040625 -1.503162e+001 -1.426140e+002 -4.027893e-001 -5.391031e+001 -4.117176e-001 -5.392532e+001 -1.524189e+001 -1.365542e+002
478415437.5 -1.497130e+001 -1.434220e+002 -4.005281e-001 -5.504285e+001 -4.154100e-001 -5.500323e+001 -1.517713e+001 -1.375902e+002
487790250 -1.490874e+001 -1.445104e+002 -3.987521e-001 -5.613478e+001 -4.164922e-001 -5.605302e+001 -1.518241e+001 -1.389562e+002
497165062.5 -1.486045e+001 -1.454920e+002 -4.134022e-001 -5.724145e+001 -4.249373e-001 -5.718106e+001 -1.521039e+001 -1.397991e+002
506539875 -1.482934e+001 -1.466893e+002 -4.220219e-001 -5.832719e+001 -4.343515e-001 -5.834846e+001 -1.523511e+001 -1.406159e+002
515914687.5 -1.482803e+001 -1.480568e+002 -4.284730e-001 -5.942796e+001 -4.347013e-001 -5.940852e+001 -1.521862e+001 -1.416275e+002
525289500 -1.479150e+001 -1.493536e+002 -4.284252e-001 -6.054206e+001 -4.384399e-001 -6.056793e+001 -1.522158e+001 -1.427427e+002
534664312.5 -1.481298e+001 -1.506044e+002 -4.249582e-001 -6.165685e+001 -4.383658e-001 -6.167939e+001 -1.524019e+001 -1.438321e+002
544039125 -1.482164e+001 -1.517805e+002 -4.407535e-001 -6.270239e+001 -4.371298e-001 -6.272882e+001 -1.525263e+001 -1.451092e+002
553413937.5 -1.483684e+001 -1.533933e+002 -4.490097e-001 -6.386085e+001 -4.538380e-001 -6.390280e+001 -1.527319e+001 -1.466583e+002
562788750 -1.487938e+001 -1.549101e+002 -4.452296e-001 -6.501736e+001 -4.579578e-001 -6.506459e+001 -1.525294e+001 -1.480410e+002
572163562.5 -1.498715e+001 -1.564141e+002 -4.350976e-001 -6.617653e+001 -4.527681e-001 -6.617879e+001 -1.529153e+001 -1.484832e+002
581538375 -1.508999e+001 -1.581258e+002 -4.330449e-001 -6.735533e+001 -4.501957e-001 -6.737363e+001 -1.529974e+001 -1.493559e+002
590913187.5 -1.515677e+001 -1.591132e+002 -4.219522e-001 -6.857163e+001 -4.496922e-001 -6.856425e+001 -1.532564e+001 -1.506066e+002
600288000 -1.517042e+001 -1.604838e+002 -4.326281e-001 -6.979084e+001 -4.446564e-001 -6.973192e+001 -1.539778e+001 -1.519466e+002
609662812.5 -1.528457e+001 -1.616855e+002 -4.257880e-001 -7.097236e+001 -4.482650e-001 -7.092014e+001 -1.547230e+001 -1.532152e+002
619037625 -1.537114e+001 -1.631895e+002 -4.400960e-001 -7.215410e+001 -4.581188e-001 -7.213803e+001 -1.554588e+001 -1.543681e+002
628412437.5 -1.546626e+001 -1.644506e+002 -4.407930e-001 -7.325990e+001 -4.511674e-001 -7.331625e+001 -1.563137e+001 -1.551148e+002
637787250 -1.558072e+001 -1.659429e+002 -4.426191e-001 -7.443552e+001 -4.641073e-001 -7.446220e+001 -1.574143e+001 -1.560268e+002
647162062.5 -1.573530e+001 -1.671494e+002 -4.499045e-001 -7.570992e+001 -4.528237e-001 -7.565343e+001 -1.586206e+001 -1.570764e+002
656536875 -1.588361e+001 -1.685907e+002 -4.402307e-001 -7.695042e+001 -4.478707e-001 -7.689767e+001 -1.599381e+001 -1.578779e+002
665911687.5 -1.608776e+001 -1.697294e+002 -4.341567e-001 -7.817607e+001 -4.438623e-001 -7.811673e+001 -1.614010e+001 -1.584948e+002
675286500 -1.622964e+001 -1.709421e+002 -4.356178e-001 -7.945063e+001 -4.435779e-001 -7.941139e+001 -1.633984e+001 -1.591768e+002
684661312.5 -1.645683e+001 -1.729795e+002 -4.362216e-001 -8.069606e+001 -4.360585e-001 -8.060995e+001 -1.652508e+001 -1.604050e+002
694036125 -1.670434e+001 -1.742773e+002 -4.325837e-001 -8.196090e+001 -4.499769e-001 -8.190987e+001 -1.680367e+001 -1.609999e+002
703410937.5 -1.694677e+001 -1.754626e+002 -4.380521e-001 -8.319244e+001 -4.511280e-001 -8.319403e+001 -1.704972e+001 -1.614122e+002
712785750 -1.719118e+001 -1.769505e+002 -4.250979e-001 -8.456406e+001 -4.479337e-001 -8.448141e+001 -1.729908e+001 -1.621311e+002
722160562.5 -1.757129e+001 -1.784221e+002 -4.270096e-001 -8.576717e+001 -4.427590e-001 -8.577065e+001 -1.752546e+001 -1.627534e+002
731535375 -1.788675e+001 -1.797274e+002 -4.230531e-001 -8.711834e+001 -4.324476e-001 -8.711201e+001 -1.780913e+001 -1.635452e+002
740910187.5 -1.822487e+001 1.792254e+002 -4.521447e-001 -8.837383e+001 -4.620447e-001 -8.839680e+001 -1.816553e+001 -1.639488e+002
750285000 -1.865254e+001 1.780679e+002 -4.712365e-001 -8.956146e+001 -4.812275e-001 -8.958225e+001 -1.850265e+001 -1.644778e+002
759659812.5 -1.889631e+001 1.755359e+002 -3.537286e-001 -9.147710e+001 -3.692251e-001 -9.145136e+001 -1.874559e+001 -1.656763e+002
769034625 -1.939994e+001 1.739971e+002 -4.235174e-001 -9.254972e+001 -4.300072e-001 -9.251949e+001 -1.924993e+001 -1.658231e+002
778409437.5 -1.984917e+001 1.724758e+002 -4.377740e-001 -9.388821e+001 -4.389508e-001 -9.392678e+001 -1.968816e+001 -1.660070e+002
787784250 -2.033190e+001 1.704333e+002 -4.488437e-001 -9.526938e+001 -4.441523e-001 -9.535403e+001 -2.015427e+001 -1.665855e+002
797159062.5 -2.092210e+001 1.686567e+002 -4.317861e-001 -9.671136e+001 -4.401779e-001 -9.672949e+001 -2.061931e+001 -1.667157e+002
806533875 -2.155788e+001 1.665261e+002 -4.401811e-001 -9.819186e+001 -4.323385e-001 -9.810666e+001 -2.111844e+001 -1.663376e+002
815908687.5 -2.223486e+001 1.642039e+002 -4.270848e-001 -9.954731e+001 -4.558708e-001 -9.962567e+001 -2.161991e+001 -1.657717e+002
825283500 -2.310538e+001 1.622500e+002 -4.301620e-001 -1.009934e+002 -4.520362e-001 -1.010019e+002 -2.219968e+001 -1.654068e+002
834658312.5 -2.405197e+001 1.597574e+002 -4.329357e-001 -1.024507e+002 -4.431901e-001 -1.025840e+002 -2.276433e+001 -1.635513e+002
844033125 -2.520464e+001 1.570155e+002 -4.324341e-001 -1.039983e+002 -4.415594e-001 -1.039442e+002 -2.355659e+001 -1.621013e+002
853407937.5 -2.648211e+001 1.539815e+002 -4.262225e-001 -1.054998e+002 -4.419819e-001 -1.054751e+002 -2.445568e+001 -1.598847e+002
862782750 -2.791075e+001 1.508508e+002 -4.314388e-001 -1.069564e+002 -4.441296e-001 -1.070400e+002 -2.531011e+001 -1.559213e+002
872157562.5 -2.979716e+001 1.454750e+002 -4.372382e-001 -1.084794e+002 -4.478836e-001 -1.084995e+002 -2.621509e+001 -1.526262e+002
881532375 -3.220790e+001 1.397263e+002 -4.460869e-001 -1.100367e+002 -4.481418e-001 -1.100921e+002 -2.720100e+001 -1.463320e+002
890907187.5 -3.516493e+001 1.323140e+002 -4.548734e-001 -1.116675e+002 -4.591736e-001 -1.116296e+002 -2.795659e+001 -1.372065e+002
900282000 -3.945207e+001 1.150496e+002 -4.501654e-001 -1.132156e+002 -4.756011e-001 -1.131953e+002 -2.854382e+001 -1.275366e+002
909656812.5 -4.298942e+001 6.847113e+001 -4.574864e-001 -1.148701e+002 -4.557131e-001 -1.149040e+002 -2.859084e+001 -1.149763e+002
919031625 -3.932850e+001 2.177733e+001 -4.667557e-001 -1.164696e+002 -4.773795e-001 -1.165503e+002 -2.813793e+001 -1.051328e+002
928406437.5 -3.489398e+001 -1.928397e+000 -4.846099e-001 -1.181654e+002 -4.822457e-001 -1.182097e+002 -2.786035e+001 -9.592120e+001
937781250 -3.182325e+001 -1.305471e+001 -4.886102e-001 -1.198366e+002 -4.971979e-001 -1.198016e+002 -2.723007e+001 -8.640352e+001
947156062.5 -2.922927e+001 -1.911722e+001 -4.950940e-001 -1.214774e+002 -5.037288e-001 -1.215339e+002 -2.618425e+001 -7.933450e+001
956530875 -2.715875e+001 -2.174497e+001 -4.994827e-001 -1.232214e+002 -5.117736e-001 -1.232013e+002 -2.511616e+001 -7.398784e+001
965905687.5 -2.548438e+001 -2.502681e+001 -5.160945e-001 -1.248968e+002 -5.190443e-001 -1.249312e+002 -2.415701e+001 -7.056167e+001
975280500 -2.417388e+001 -2.889170e+001 -5.360436e-001 -1.266305e+002 -5.287085e-001 -1.267009e+002 -2.325303e+001 -6.806023e+001
984655312.5 -2.310094e+001 -3.081186e+001 -5.380977e-001 -1.284285e+002 -5.470914e-001 -1.284385e+002 -2.244052e+001 -6.647453e+001
994030125 -2.205570e+001 -3.288258e+001 -5.480595e-001 -1.301808e+002 -5.483365e-001 -1.302098e+002 -2.161179e+001 -6.470363e+001
1003404937.5 -2.105842e+001 -3.539042e+001 -5.597711e-001 -1.319405e+002 -5.701782e-001 -1.319903e+002 -2.079556e+001 -6.406322e+001
1012779750 -2.028357e+001 -3.853278e+001 -5.693331e-001 -1.337999e+002 -5.928593e-001 -1.337627e+002 -2.007520e+001 -6.448660e+001
1022154562.5 -1.952658e+001 -4.065594e+001 -5.774242e-001 -1.356343e+002 -6.000730e-001 -1.356311e+002 -1.953078e+001 -6.452479e+001
1031529375 -1.888930e+001 -4.298127e+001 -5.994452e-001 -1.374606e+002 -6.136796e-001 -1.374910e+002 -1.890737e+001 -6.494553e+001
1040904187.5 -1.828904e+001 -4.538553e+001 -6.127141e-001 -1.394074e+002 -6.298421e-001 -1.394160e+002 -1.837386e+001 -6.566074e+001
1050279000 -1.771355e+001 -4.730511e+001 -6.241887e-001 -1.414043e+002 -6.492822e-001 -1.413369e+002 -1.799359e+001 -6.618097e+001
1059653812.5 -1.731704e+001 -4.918243e+001 -6.459673e-001 -1.432912e+002 -6.654909e-001 -1.432451e+002 -1.751002e+001 -6.711703e+001
1069028625 -1.691271e+001 -5.170990e+001 -6.763163e-001 -1.452453e+002 -6.902158e-001 -1.451956e+002 -1.709430e+001 -6.802206e+001
1078403437.5 -1.651590e+001 -5.364955e+001 -6.913041e-001 -1.472796e+002 -7.013921e-001 -1.472394e+002 -1.669279e+001 -6.892289e+001
1087778250 -1.608441e+001 -5.557270e+001 -7.103257e-001 -1.492976e+002 -7.237769e-001 -1.492866e+002 -1.638302e+001 -7.021831e+001
1097153062.5 -1.577177e+001 -5.831702e+001 -7.372041e-001 -1.514131e+002 -7.441084e-001 -1.513388e+002 -1.611882e+001 -7.108996e+001
1106527875 -1.552530e+001 -6.007208e+001 -7.481179e-001 -1.534137e+002 -7.593210e-001 -1.534186e+002 -1.584778e+001 -7.231147e+001
1115902687.5 -1.526659e+001 -6.198975e+001 -7.826903e-001 -1.555233e+002 -7.815352e-001 -1.556271e+002 -1.557364e+001 -7.341575e+001
1125277500 -1.503140e+001 -6.408942e+001 -7.959691e-001 -1.576896e+002 -8.095438e-001 -1.577406e+002 -1.533034e+001 -7.477053e+001
1134652312.5 -1.488566e+001 -6.636418e+001 -8.103194e-001 -1.599460e+002 -8.247266e-001 -1.598943e+002 -1.524166e+001 -7.602294e+001
1144027125 -1.477313e+001 -6.852042e+001 -8.267493e-001 -1.621453e+002 -8.469063e-001 -1.621603e+002 -1.510132e+001 -7.761152e+001
1153401937.5 -1.473543e+001 -7.055236e+001 -8.555765e-001 -1.643815e+002 -8.712010e-001 -1.644234e+002 -1.507000e+001 -7.901057e+001
1162776750 -1.470281e+001 -7.256046e+001 -8.663782e-001 -1.667951e+002 -8.847802e-001 -1.667412e+002 -1.510537e+001 -8.074666e+001
1172151562.5 -1.474768e+001 -7.511162e+001 -8.808438e-001 -1.691745e+002 -9.050592e-001 -1.691685e+002 -1.508676e+001 -8.251853e+001
1181526375 -1.490177e+001 -7.723009e+001 -8.960093e-001 -1.715730e+002 -9.106122e-001 -1.716646e+002 -1.513537e+001 -8.361568e+001
1190901187.5 -1.503785e+001 -7.940454e+001 -9.159833e-001 -1.741924e+002 -9.126214e-001 -1.741794e+002 -1.525251e+001 -8.469917e+001
1200276000 -1.524502e+001 -8.132181e+001 -9.340416e-001 -1.768021e+002 -9.347025e-001 -1.768028e+002 -1.554270e+001 -8.583761e+001
1209650812.5 -1.556145e+001 -8.335148e+001 -9.542427e-001 -1.794136e+002 -9.533072e-001 -1.794329e+002 -1.581787e+001 -8.725454e+001
1219025625 -1.603436e+001 -8.527317e+001 -9.641010e-001 1.777772e+002 -9.751245e-001 1.777652e+002 -1.623282e+001 -8.815301e+001
1228400437.5 -1.664246e+001 -8.681767e+001 -9.747330e-001 1.749272e+002 -9.899253e-001 1.748991e+002 -1.680656e+001 -8.860606e+001
1237775250 -1.739134e+001 -8.824822e+001 -9.912053e-001 1.719732e+002 -1.015647e+000 1.719204e+002 -1.758092e+001 -8.818359e+001
1247150062.5 -1.829182e+001 -8.905750e+001 -1.016858e+000 1.688348e+002 -1.030752e+000 1.688746e+002 -1.835758e+001 -8.759459e+001
1256524875 -1.952068e+001 -8.913255e+001 -1.042562e+000 1.655822e+002 -1.049253e+000 1.655751e+002 -1.937677e+001 -8.522749e+001
1265899687.5 -2.112845e+001 -8.700313e+001 -1.074256e+000 1.622282e+002 -1.077451e+000 1.621799e+002 -2.064486e+001 -7.981924e+001
1275274500 -2.338568e+001 -8.016051e+001 -1.108618e+000 1.586974e+002 -1.124527e+000 1.587666e+002 -2.200885e+001 -6.962542e+001
1284649312.5 -2.600117e+001 -6.247008e+001 -1.164337e+000 1.550044e+002 -1.172121e+000 1.550250e+002 -2.313035e+001 -5.477573e+001
1294024125 -2.712905e+001 -3.036540e+001 -1.218522e+000 1.511995e+002 -1.234003e+000 1.512198e+002 -2.315728e+001 -3.341602e+001
1303398937.5 -2.468798e+001 9.782836e-001 -1.283150e+000 1.471838e+002 -1.311881e+000 1.471765e+002 -2.148721e+001 -1.410958e+001
1312773750 -2.099408e+001 1.528463e+001 -1.376939e+000 1.428810e+002 -1.390058e+000 1.428840e+002 -1.916344e+001 -2.674150e+000
1322148562.5 -1.787628e+001 2.020671e+001 -1.505007e+000 1.385629e+002 -1.508591e+000 1.384185e+002 -1.686647e+001 3.171972e+000
1331523375 -1.534580e+001 2.105034e+001 -1.647184e+000 1.338627e+002 -1.662196e+000 1.338001e+002 -1.475868e+001 5.337008e+000
1340898187.5 -1.328489e+001 1.937975e+001 -1.837862e+000 1.289988e+002 -1.848332e+000 1.290215e+002 -1.287761e+001 5.409670e+000
1350273000 -1.150051e+001 1.641776e+001 -2.051955e+000 1.239567e+002 -2.083997e+000 1.239880e+002 -1.121737e+001 3.909598e+000
1359647812.5 -9.941485e+000 1.299203e+001 -2.339114e+000 1.189298e+002 -2.358807e+000 1.189325e+002 -9.788134e+000 1.414931e+000
1369022625 -8.597372e+000 8.945873e+000 -2.669716e+000 1.137046e+002 -2.682624e+000 1.137264e+002 -8.509172e+000 -1.776541e+000
1378397437.5 -7.423612e+000 4.537732e+000 -3.033650e+000 1.084026e+002 -3.046550e+000 1.084834e+002 -7.377311e+000 -5.436144e+000
1387772250 -6.429160e+000 -7.228871e-003 -3.484274e+000 1.031505e+002 -3.474133e+000 1.032291e+002 -6.401368e+000 -9.482806e+000
1397147062.5 -5.545727e+000 -4.664917e+000 -3.977724e+000 9.797246e+001 -3.976800e+000 9.791171e+001 -5.550976e+000 -1.361406e+001
1406521875 -4.780753e+000 -9.402778e+000 -4.528418e+000 9.286253e+001 -4.531167e+000 9.275909e+001 -4.823116e+000 -1.782929e+001
