!Pin4-Port1
!Pin3-Port2
!Pin1-Port3
!Agilent Technologies,E5071C,MY46103155,A.09.41
!Date: Tue Nov 30 17:52:32 2010
!Data & Calibration Information:
!Freq	S11:SOLT3(ON)	S12:SOLT3(ON)	S13:SOLT3(ON)
!	S21:SOLT3(ON)	S22:SOLT3(ON)	S23:SOLT3(ON)
!	S31:SOLT3(ON)	S32:SOLT3(ON)	S33:SOLT3(ON)
# Hz S dB R 50
500000000	-2.036567e+000	9.294853e+001	-2.667457e+001	2.985371e+001	-7.026959e+000	-1.092274e+002
	-2.666710e+001	2.992478e+001	-8.058524e-001	1.211692e+002	-3.019809e+001	8.070066e+001
	-7.027390e+000	-1.091370e+002	-3.020737e+001	8.078068e+001	-1.735683e+000	-1.355025e+002
510000000	-1.986370e+000	9.021435e+001	-2.682266e+001	3.074033e+001	-7.254966e+000	-1.119666e+002
	-2.683570e+001	3.070798e+001	-8.367460e-001	1.183940e+002	-2.859080e+001	7.735953e+001
	-7.250172e+000	-1.119722e+002	-2.855942e+001	7.732312e+001	-1.688310e+000	-1.385560e+002
520000000	-1.914621e+000	8.733748e+001	-2.706570e+001	3.190567e+001	-7.497636e+000	-1.147882e+002
	-2.706653e+001	3.193361e+001	-8.430973e-001	1.156763e+002	-2.723716e+001	7.371573e+001
	-7.485540e+000	-1.148525e+002	-2.724353e+001	7.362806e+001	-1.660145e+000	-1.419205e+002
530000000	-1.870401e+000	8.459506e+001	-2.743725e+001	3.399743e+001	-7.767345e+000	-1.175115e+002
	-2.742392e+001	3.388940e+001	-8.515693e-001	1.131716e+002	-2.612448e+001	7.051380e+001
	-7.758621e+000	-1.175571e+002	-2.611878e+001	7.046304e+001	-1.628374e+000	-1.449286e+002
540000000	-1.814878e+000	8.170454e+001	-2.789605e+001	3.647574e+001	-8.014172e+000	-1.203950e+002
	-2.788731e+001	3.646054e+001	-8.886901e-001	1.101601e+002	-2.517112e+001	6.688034e+001
	-8.022130e+000	-1.204823e+002	-2.518694e+001	6.685050e+001	-1.614837e+000	-1.486409e+002
550000000	-1.758003e+000	7.882907e+001	-2.847808e+001	4.058896e+001	-8.312659e+000	-1.232309e+002
	-2.845769e+001	4.041637e+001	-8.954481e-001	1.075791e+002	-2.437326e+001	6.342827e+001
	-8.328256e+000	-1.233068e+002	-2.438023e+001	6.331801e+001	-1.572287e+000	-1.522579e+002
560000000	-1.705601e+000	7.589351e+001	-2.913559e+001	4.655396e+001	-8.654779e+000	-1.261247e+002
	-2.913514e+001	4.659472e+001	-9.125544e-001	1.048230e+002	-2.371011e+001	6.002074e+001
	-8.664685e+000	-1.260390e+002	-2.372331e+001	6.004606e+001	-1.590011e+000	-1.556175e+002
570000000	-1.658106e+000	7.296399e+001	-2.973005e+001	5.523818e+001	-9.023221e+000	-1.289596e+002
	-2.974735e+001	5.532190e+001	-9.237638e-001	1.018509e+002	-2.316789e+001	5.641526e+001
	-9.031860e+000	-1.289041e+002	-2.317139e+001	5.651371e+001	-1.571751e+000	-1.594535e+002
580000000	-1.618434e+000	6.987145e+001	-3.012285e+001	6.729400e+001	-9.464983e+000	-1.318752e+002
	-3.010671e+001	6.728344e+001	-9.619012e-001	9.910446e+001	-2.274078e+001	5.311191e+001
	-9.459286e+000	-1.317735e+002	-2.274212e+001	5.311476e+001	-1.565930e+000	-1.629337e+002
590000000	-1.558038e+000	6.673345e+001	-2.983723e+001	8.184785e+001	-9.940715e+000	-1.347074e+002
	-2.983864e+001	8.185589e+001	-9.661104e-001	9.625065e+001	-2.242010e+001	4.954144e+001
	-9.928037e+000	-1.346604e+002	-2.240700e+001	4.960786e+001	-1.549468e+000	-1.670086e+002
600000000	-1.498378e+000	6.363364e+001	-2.882474e+001	9.658005e+001	-1.048983e+001	-1.373762e+002
	-2.882221e+001	9.648292e+001	-1.000538e+000	9.341718e+001	-2.224714e+001	4.635350e+001
	-1.049297e+001	-1.374220e+002	-2.224713e+001	4.633383e+001	-1.547579e+000	-1.712765e+002
610000000	-1.464259e+000	6.029895e+001	-2.712956e+001	1.084095e+002	-1.114888e+001	-1.399216e+002
	-2.714556e+001	1.085011e+002	-9.997026e-001	9.049048e+001	-2.219656e+001	4.318279e+001
	-1.113903e+001	-1.399371e+002	-2.217852e+001	4.312596e+001	-1.571118e+000	-1.753700e+002
620000000	-1.421166e+000	5.688373e+001	-2.516721e+001	1.165869e+002	-1.190928e+001	-1.423286e+002
	-2.516100e+001	1.165487e+002	-1.069076e+000	8.730186e+001	-2.231466e+001	4.023044e+001
	-1.191171e+001	-1.424386e+002	-2.231372e+001	4.026413e+001	-1.589630e+000	-1.798214e+002
630000000	-1.414693e+000	5.336641e+001	-2.310618e+001	1.216296e+002	-1.282503e+001	-1.441706e+002
	-2.310710e+001	1.215697e+002	-1.074368e+000	8.430542e+001	-2.258634e+001	3.788043e+001
	-1.282084e+001	-1.441966e+002	-2.258558e+001	3.777795e+001	-1.580670e+000	1.755824e+002
640000000	-1.401130e+000	4.966729e+001	-2.113372e+001	1.241078e+002	-1.395887e+001	-1.453378e+002
	-2.112872e+001	1.240672e+002	-1.150155e+000	8.103178e+001	-2.314958e+001	3.612303e+001
	-1.396682e+001	-1.454020e+002	-2.315870e+001	3.613261e+001	-1.622158e+000	1.704163e+002
650000000	-1.427531e+000	4.574646e+001	-1.922942e+001	1.247714e+002	-1.536691e+001	-1.448174e+002
	-1.923356e+001	1.247721e+002	-1.196034e+000	7.792855e+001	-2.398855e+001	3.614591e+001
	-1.536969e+001	-1.447312e+002	-2.399517e+001	3.618643e+001	-1.672214e+000	1.651343e+002
660000000	-1.466865e+000	4.155708e+001	-1.744561e+001	1.239052e+002	-1.710829e+001	-1.410521e+002
	-1.744732e+001	1.238956e+002	-1.288455e+000	7.453073e+001	-2.519491e+001	3.942963e+001
	-1.712750e+001	-1.410071e+002	-2.520491e+001	3.955271e+001	-1.741316e+000	1.595983e+002
670000000	-1.569190e+000	3.713768e+001	-1.578749e+001	1.218627e+002	-1.906823e+001	-1.309688e+002
	-1.578509e+001	1.218811e+002	-1.410077e+000	7.088931e+001	-2.666104e+001	4.914089e+001
	-1.907678e+001	-1.308781e+002	-2.666234e+001	4.921258e+001	-1.841856e+000	1.533694e+002
680000000	-1.723429e+000	3.252238e+001	-1.420832e+001	1.188000e+002	-2.031346e+001	-1.103361e+002
	-1.420694e+001	1.188055e+002	-1.534858e+000	6.723051e+001	-2.738564e+001	6.948621e+001
	-2.030201e+001	-1.102695e+002	-2.738144e+001	6.959069e+001	-2.018735e+000	1.472027e+002
690000000	-1.940968e+000	2.759485e+001	-1.272794e+001	1.148204e+002	-1.920247e+001	-8.622431e+001
	-1.273129e+001	1.148106e+002	-1.707682e+000	6.348047e+001	-2.575372e+001	9.319584e+001
	-1.920991e+001	-8.623364e+001	-2.574182e+001	9.322111e+001	-2.215708e+000	1.401804e+002
700000000	-2.278729e+000	2.243453e+001	-1.138078e+001	1.098432e+002	-1.649310e+001	-7.228137e+001
	-1.137651e+001	1.098593e+002	-1.926319e+000	5.956998e+001	-2.254083e+001	1.063250e+002
	-1.649273e+001	-7.233570e+001	-2.254556e+001	1.063165e+002	-2.519699e+000	1.328480e+002
710000000	-2.748122e+000	1.733373e+001	-1.013091e+001	1.041242e+002	-1.372815e+001	-6.839715e+001
	-1.013198e+001	1.041357e+002	-2.208338e+000	5.591534e+001	-1.933070e+001	1.095467e+002
	-1.373679e+001	-6.847088e+001	-1.933673e+001	1.094966e+002	-2.931846e+000	1.249768e+002
720000000	-3.387058e+000	1.227455e+001	-9.044044e+000	9.767398e+001	-1.137342e+001	-7.012890e+001
	-9.039816e+000	9.767447e+001	-2.568021e+000	5.231868e+001	-1.654655e+001	1.071929e+002
	-1.138500e+001	-7.014545e+001	-1.655311e+001	1.071764e+002	-3.505011e+000	1.168482e+002
730000000	-4.232594e+000	7.710042e+000	-8.123424e+000	9.066007e+001	-9.447736e+000	-7.499828e+001
	-8.121855e+000	9.066485e+001	-2.998515e+000	4.913920e+001	-1.422730e+001	1.017224e+002
	-9.457979e+000	-7.500282e+001	-1.423579e+001	1.017224e+002	-4.222144e+000	1.087989e+002
740000000	-5.260499e+000	4.318232e+000	-7.385548e+000	8.328214e+001	-7.940683e+000	-8.169536e+001
	-7.382550e+000	8.326994e+001	-3.469664e+000	4.637257e+001	-1.232202e+001	9.442864e+001
	-7.944642e+000	-8.167560e+001	-1.232298e+001	9.445296e+001	-5.129830e+000	1.005724e+002
750000000	-6.505628e+000	2.583530e+000	-6.820587e+000	7.591205e+001	-6.782704e+000	-8.928992e+001
	-6.821294e+000	7.589883e+001	-3.971163e+000	4.437698e+001	-1.079504e+001	8.632961e+001
	-6.775384e+000	-8.927819e+001	-1.079470e+001	8.631499e+001	-6.262407e+000	9.284084e+001
760000000	-7.819636e+000	3.451399e+000	-6.426499e+000	6.873052e+001	-5.901522e+000	-9.727957e+001
	-6.427206e+000	6.873958e+001	-4.459115e+000	4.322229e+001	-9.544654e+000	7.797734e+001
	-5.890322e+000	-9.722882e+001	-9.541374e+000	7.787394e+001	-7.553570e+000	8.605893e+001
770000000	-9.021391e+000	7.220451e+000	-6.188331e+000	6.190934e+001	-5.264827e+000	-1.051784e+002
	-6.189243e+000	6.189663e+001	-4.880947e+000	4.224413e+001	-8.556415e+000	6.951738e+001
	-5.259599e+000	-1.051862e+002	-8.559996e+000	6.950588e+001	-9.013249e+000	8.089526e+001
780000000	-9.927726e+000	1.351701e+001	-6.066208e+000	5.569397e+001	-4.817281e+000	-1.129016e+002
	-6.067107e+000	5.567637e+001	-5.251170e+000	4.174257e+001	-7.783993e+000	6.133937e+001
	-4.819768e+000	-1.128723e+002	-7.778751e+000	6.133895e+001	-1.052328e+001	7.694012e+001
790000000	-1.033402e+001	2.140498e+001	-6.019255e+000	4.995744e+001	-4.524650e+000	-1.202602e+002
	-6.020315e+000	4.995961e+001	-5.500891e+000	4.153176e+001	-7.170400e+000	5.353232e+001
	-4.528237e+000	-1.202511e+002	-7.162432e+000	5.347963e+001	-1.206504e+001	7.470834e+001
800000000	-1.021290e+001	2.866473e+001	-6.038503e+000	4.484502e+001	-4.347202e+000	-1.271424e+002
	-6.039708e+000	4.482842e+001	-5.704257e+000	4.112560e+001	-6.667736e+000	4.620108e+001
	-4.352317e+000	-1.271599e+002	-6.663940e+000	4.617860e+001	-1.362009e+001	7.422853e+001
810000000	-9.785463e+000	3.396824e+001	-6.099948e+000	4.029803e+001	-4.251188e+000	-1.336695e+002
	-6.101768e+000	4.029533e+001	-5.848333e+000	4.036601e+001	-6.268697e+000	3.927148e+001
	-4.259538e+000	-1.336717e+002	-6.264959e+000	3.928828e+001	-1.496003e+001	7.524867e+001
820000000	-9.221366e+000	3.745687e+001	-6.192527e+000	3.624550e+001	-4.210716e+000	-1.397606e+002
	-6.187354e+000	3.624033e+001	-5.949079e+000	3.971869e+001	-5.929687e+000	3.279359e+001
	-4.211328e+000	-1.397756e+002	-5.940018e+000	3.277030e+001	-1.607534e+001	7.735817e+001
830000000	-8.605020e+000	3.922153e+001	-6.285505e+000	3.260264e+001	-4.209790e+000	-1.454866e+002
	-6.280902e+000	3.258728e+001	-6.018199e+000	3.869236e+001	-5.646102e+000	2.658175e+001
	-4.213895e+000	-1.454960e+002	-5.649018e+000	2.659766e+001	-1.686104e+001	7.976472e+001
840000000	-8.098563e+000	3.984075e+001	-6.385116e+000	2.945704e+001	-4.234973e+000	-1.509965e+002
	-6.384121e+000	2.943718e+001	-6.101969e+000	3.741883e+001	-5.402369e+000	2.078792e+001
	-4.236815e+000	-1.510003e+002	-5.413720e+000	2.075097e+001	-1.745582e+001	8.110729e+001
850000000	-7.599745e+000	3.972291e+001	-6.471356e+000	2.657393e+001	-4.285807e+000	-1.561877e+002
	-6.472713e+000	2.656858e+001	-6.185772e+000	3.594122e+001	-5.193317e+000	1.516544e+001
	-4.291207e+000	-1.561781e+002	-5.189953e+000	1.516823e+001	-1.784936e+001	8.226976e+001
860000000	-7.205528e+000	3.886918e+001	-6.556146e+000	2.404991e+001	-4.340422e+000	-1.612570e+002
	-6.558637e+000	2.403375e+001	-6.290615e+000	3.426219e+001	-5.001721e+000	9.864800e+000
	-4.348153e+000	-1.612346e+002	-5.000322e+000	9.842856e+000	-1.814107e+001	8.189990e+001
870000000	-6.832116e+000	3.791224e+001	-6.629117e+000	2.159373e+001	-4.421436e+000	-1.660874e+002
	-6.631186e+000	2.160020e+001	-6.387992e+000	3.254835e+001	-4.836408e+000	4.689054e+000
	-4.424766e+000	-1.660912e+002	-4.835140e+000	4.689323e+000	-1.846426e+001	8.073480e+001
880000000	-6.524211e+000	3.652579e+001	-6.695360e+000	1.942633e+001	-4.500390e+000	-1.708279e+002
	-6.696539e+000	1.942568e+001	-6.500033e+000	3.079892e+001	-4.682280e+000	-2.783287e-001
	-4.501280e+000	-1.708114e+002	-4.678819e+000	-2.856384e-001	-1.869893e+001	7.817917e+001
890000000	-6.262912e+000	3.508791e+001	-6.754029e+000	1.749534e+001	-4.583487e+000	-1.754076e+002
	-6.751959e+000	1.750712e+001	-6.623500e+000	2.895230e+001	-4.534537e+000	-5.111208e+000
	-4.584046e+000	-1.753739e+002	-4.535363e+000	-5.133833e+000	-1.894589e+001	7.550397e+001
900000000	-6.016113e+000	3.337996e+001	-6.810092e+000	1.564675e+001	-4.673432e+000	-1.798797e+002
	-6.807540e+000	1.564287e+001	-6.750418e+000	2.698319e+001	-4.402595e+000	-9.853065e+000
	-4.668223e+000	-1.798822e+002	-4.411849e+000	-9.832142e+000	-1.934807e+001	7.106553e+001
910000000	-5.800379e+000	3.167399e+001	-6.855574e+000	1.395778e+001	-4.757269e+000	1.757013e+002
	-6.852535e+000	1.395579e+001	-6.889306e+000	2.497844e+001	-4.288557e+000	-1.443067e+001
	-4.759797e+000	1.757005e+002	-4.291721e+000	-1.445699e+001	-1.968604e+001	6.636682e+001
920000000	-5.620721e+000	2.991682e+001	-6.872669e+000	1.239602e+001	-4.849832e+000	1.713315e+002
	-6.870946e+000	1.237833e+001	-7.044490e+000	2.296626e+001	-4.177580e+000	-1.901544e+001
	-4.851035e+000	1.713275e+002	-4.179520e+000	-1.901107e+001	-2.015422e+001	6.099106e+001
930000000	-5.466341e+000	2.814015e+001	-6.886429e+000	1.089258e+001	-4.937456e+000	1.670122e+002
	-6.888317e+000	1.087575e+001	-7.220876e+000	2.085378e+001	-4.074174e+000	-2.348030e+001
	-4.940594e+000	1.669993e+002	-4.076843e+000	-2.349266e+001	-2.070094e+001	5.480916e+001
940000000	-5.332794e+000	2.628483e+001	-6.881467e+000	9.470045e+000	-5.025418e+000	1.626912e+002
	-6.878919e+000	9.450706e+000	-7.400923e+000	1.883971e+001	-3.979344e+000	-2.789931e+001
	-5.026962e+000	1.627080e+002	-3.982894e+000	-2.792104e+001	-2.131539e+001	4.836300e+001
950000000	-5.221044e+000	2.438930e+001	-6.877609e+000	8.121202e+000	-5.109319e+000	1.583899e+002
	-6.877464e+000	8.084339e+000	-7.590736e+000	1.665429e+001	-3.891778e+000	-3.228788e+001
	-5.114760e+000	1.583963e+002	-3.895326e+000	-3.226985e+001	-2.205473e+001	4.124668e+001
960000000	-5.117738e+000	2.254608e+001	-6.861006e+000	6.753862e+000	-5.194226e+000	1.540871e+002
	-6.860122e+000	6.779162e+000	-7.804737e+000	1.467796e+001	-3.813745e+000	-3.663699e+001
	-5.195138e+000	1.541058e+002	-3.817114e+000	-3.663727e+001	-2.279138e+001	3.426144e+001
970000000	-5.030357e+000	2.064525e+001	-6.837677e+000	5.495209e+000	-5.278925e+000	1.497630e+002
	-6.836535e+000	5.501169e+000	-8.023087e+000	1.262514e+001	-3.747729e+000	-4.091899e+001
	-5.283468e+000	1.497849e+002	-3.745049e+000	-4.094902e+001	-2.362559e+001	2.659419e+001
980000000	-4.959878e+000	1.883241e+001	-6.806764e+000	4.290826e+000	-5.372816e+000	1.454488e+002
	-6.807740e+000	4.296728e+000	-8.256409e+000	1.051683e+001	-3.683694e+000	-4.521479e+001
	-5.376259e+000	1.454410e+002	-3.680631e+000	-4.520188e+001	-2.467335e+001	1.729480e+001
990000000	-4.896911e+000	1.685952e+001	-6.776350e+000	3.164484e+000	-5.463391e+000	1.410735e+002
	-6.774516e+000	3.138946e+000	-8.488751e+000	8.375836e+000	-3.625382e+000	-4.947349e+001
	-5.462095e+000	1.411038e+002	-3.623598e+000	-4.948280e+001	-2.564882e+001	7.500947e+000
1000000000	-4.849244e+000	1.500264e+001	-6.714768e+000	2.069057e+000	-5.553386e+000	1.367308e+002
	-6.714848e+000	2.056074e+000	-8.753965e+000	6.286134e+000	-3.569122e+000	-5.375267e+001
	-5.547541e+000	1.367298e+002	-3.570833e+000	-5.377139e+001	-2.705668e+001	-4.457063e+000
1010000000	-4.803342e+000	1.300162e+001	-6.665332e+000	9.879098e-001	-5.637595e+000	1.322852e+002
	-6.662989e+000	9.962005e-001	-9.020346e+000	4.103673e+000	-3.530513e+000	-5.801204e+001
	-5.640174e+000	1.322896e+002	-3.533440e+000	-5.804848e+001	-2.858079e+001	-1.703497e+001
1020000000	-4.768597e+000	1.099120e+001	-6.598435e+000	3.995351e-002	-5.724134e+000	1.278369e+002
	-6.596742e+000	8.767989e-003	-9.296126e+000	1.715909e+000	-3.500438e+000	-6.232513e+001
	-5.728374e+000	1.278656e+002	-3.499056e+000	-6.231766e+001	-3.050827e+001	-3.440599e+001
1030000000	-4.754000e+000	9.127870e+000	-6.508021e+000	-1.057676e+000	-5.811450e+000	1.234077e+002
	-6.512190e+000	-1.072055e+000	-9.617285e+000	-3.086427e-001	-3.468955e+000	-6.659518e+001
	-5.812679e+000	1.233545e+002	-3.474946e+000	-6.659820e+001	-3.222717e+001	-5.941878e+001
1040000000	-4.747220e+000	7.159344e+000	-6.426152e+000	-2.116087e+000	-5.893242e+000	1.187890e+002
	-6.424717e+000	-2.106112e+000	-9.944433e+000	-2.493438e+000	-3.444176e+000	-7.090669e+001
	-5.899417e+000	1.187969e+002	-3.451563e+000	-7.089742e+001	-3.408418e+001	-9.167334e+001
1050000000	-4.751494e+000	5.168046e+000	-6.326044e+000	-3.111789e+000	-5.980613e+000	1.141182e+002
	-6.323566e+000	-3.091902e+000	-1.030805e+001	-4.776278e+000	-3.441096e+000	-7.530602e+001
	-5.983107e+000	1.141041e+002	-3.441531e+000	-7.526670e+001	-3.333931e+001	-1.318713e+002
1060000000	-4.774148e+000	3.166112e+000	-6.216326e+000	-4.070463e+000	-6.076001e+000	1.093638e+002
	-6.214212e+000	-4.065405e+000	-1.069731e+001	-7.172141e+000	-3.446877e+000	-7.963559e+001
	-6.081679e+000	1.094268e+002	-3.441801e+000	-7.961490e+001	-3.064036e+001	-1.623149e+002
1070000000	-4.808714e+000	1.177987e+000	-6.099482e+000	-5.106959e+000	-6.167455e+000	1.045818e+002
	-6.098208e+000	-5.074515e+000	-1.112220e+001	-9.429930e+000	-3.443629e+000	-8.401088e+001
	-6.164871e+000	1.045833e+002	-3.449777e+000	-8.401544e+001	-2.811137e+001	1.780847e+002
1080000000	-4.839064e+000	-8.596880e-001	-5.971129e+000	-6.076667e+000	-6.261181e+000	9.969428e+001
	-5.969818e+000	-6.087575e+000	-1.155286e+001	-1.179514e+001	-3.462227e+000	-8.846711e+001
	-6.260856e+000	9.969314e+001	-3.458930e+000	-8.844482e+001	-2.536001e+001	1.627087e+002
1090000000	-4.886333e+000	-2.896356e+000	-5.825167e+000	-7.039006e+000	-6.362355e+000	9.471076e+001
	-5.822005e+000	-7.043395e+000	-1.206435e+001	-1.430314e+001	-3.495271e+000	-9.298488e+001
	-6.362400e+000	9.470076e+001	-3.493530e+000	-9.298750e+001	-2.310729e+001	1.500275e+002
1100000000	-4.958017e+000	-4.882887e+000	-5.665519e+000	-8.053375e+000	-6.475467e+000	8.965890e+001
	-5.662564e+000	-8.057983e+000	-1.261180e+001	-1.682470e+001	-3.535892e+000	-9.748674e+001
	-6.478801e+000	8.966590e+001	-3.542808e+000	-9.749444e+001	-2.112691e+001	1.401391e+002
1110000000	-5.051569e+000	-6.951735e+000	-5.486364e+000	-9.152499e+000	-6.581855e+000	8.456516e+001
	-5.486386e+000	-9.175425e+000	-1.326973e+001	-1.930464e+001	-3.590934e+000	-1.020745e+002
	-6.581796e+000	8.452667e+001	-3.590420e+000	-1.020634e+002	-1.934969e+001	1.308922e+002
1120000000	-5.141192e+000	-8.939823e+000	-5.304267e+000	-1.028945e+001	-6.706607e+000	7.923231e+001
	-5.303579e+000	-1.032297e+001	-1.395394e+001	-2.184765e+001	-3.658940e+000	-1.067493e+002
	-6.713072e+000	7.925538e+001	-3.663357e+000	-1.067384e+002	-1.766223e+001	1.214024e+002
1130000000	-5.257480e+000	-1.089670e+001	-5.110563e+000	-1.151132e+001	-6.843428e+000	7.390949e+001
	-5.113381e+000	-1.154760e+001	-1.475667e+001	-2.442241e+001	-3.759945e+000	-1.114422e+002
	-6.851093e+000	7.391042e+001	-3.757178e+000	-1.114184e+002	-1.623322e+001	1.129121e+002
1140000000	-5.408255e+000	-1.288233e+001	-4.902769e+000	-1.284416e+001	-6.981874e+000	6.843880e+001
	-4.903300e+000	-1.284835e+001	-1.571573e+001	-2.682434e+001	-3.863289e+000	-1.161408e+002
	-6.980417e+000	6.847468e+001	-3.867300e+000	-1.161515e+002	-1.487024e+001	1.048842e+002
1150000000	-5.557840e+000	-1.469822e+001	-4.693804e+000	-1.426525e+001	-7.142780e+000	6.286293e+001
	-4.694311e+000	-1.424447e+001	-1.683333e+001	-2.899722e+001	-3.995976e+000	-1.209352e+002
	-7.142399e+000	6.288014e+001	-3.999468e+000	-1.209146e+002	-1.365076e+001	9.734543e+001
1160000000	-5.737538e+000	-1.656308e+001	-4.471277e+000	-1.576612e+001	-7.308903e+000	5.725255e+001
	-4.473743e+000	-1.577985e+001	-1.815150e+001	-3.100326e+001	-4.149792e+000	-1.257164e+002
	-7.308106e+000	5.727224e+001	-4.150990e+000	-1.257176e+002	-1.253071e+001	8.992802e+001
1170000000	-5.935263e+000	-1.829026e+001	-4.251784e+000	-1.742345e+001	-7.503544e+000	5.151970e+001
	-4.249323e+000	-1.743572e+001	-1.978815e+001	-3.203939e+001	-4.328437e+000	-1.306026e+002
	-7.499696e+000	5.149318e+001	-4.329227e+000	-1.306530e+002	-1.141082e+001	8.254881e+001
1180000000	-6.154779e+000	-1.991591e+001	-4.027955e+000	-1.919192e+001	-7.715877e+000	4.568547e+001
	-4.024393e+000	-1.917440e+001	-2.186845e+001	-3.214720e+001	-4.535647e+000	-1.354542e+002
	-7.713935e+000	4.572433e+001	-4.536867e+000	-1.354964e+002	-1.042424e+001	7.563663e+001
1190000000	-6.379171e+000	-2.135031e+001	-3.804264e+000	-2.104022e+001	-7.939439e+000	3.985161e+001
	-3.801398e+000	-2.106317e+001	-2.452607e+001	-2.942177e+001	-4.760438e+000	-1.403410e+002
	-7.942272e+000	3.984101e+001	-4.764836e+000	-1.403576e+002	-9.506823e+000	6.876620e+001
1200000000	-6.616591e+000	-2.259287e+001	-3.583183e+000	-2.311130e+001	-8.197356e+000	3.397134e+001
	-3.581804e+000	-2.311175e+001	-2.819528e+001	-1.799248e+001	-5.031588e+000	-1.452294e+002
	-8.200509e+000	3.397991e+001	-5.032243e+000	-1.452234e+002	-8.669906e+000	6.220663e+001
