# Hz S DB R 50
! Planar, Obzor-808, 19035835, 20.4.1/1
! Date: 08.06.2021 11:48:26
! Data: Format (Calibration Info)
! Freq	S11:dB/Ang(F2)	S41:dB/Ang(F2)	S14:dB/Ang(F2)	S44:dB/Ang(F2)
7.00000000000E+08	-3.04246016099E-01	-8.98382798821E+01	-6.82943575482E+01	+1.51347491608E+02	-6.84290900398E+01	+1.51569886723E+02	-2.54034362369E-01	-8.52048780331E+01
7.01000000000E+08	-3.04114881683E-01	-9.00352572972E+01	-6.80209794709E+01	+1.51255602922E+02	-6.81315220655E+01	+1.51174716678E+02	-2.52417850058E-01	-8.53872755133E+01
7.02000000000E+08	-3.06848465000E-01	-9.02221239146E+01	-6.81383183002E+01	+1.51008543107E+02	-6.82846682379E+01	+1.50952864085E+02	-2.53631785229E-01	-8.55542195046E+01
7.03000000000E+08	-3.07713322559E-01	-9.03896926264E+01	-6.80364590706E+01	+1.51536199700E+02	-6.80794522627E+01	+1.51336628518E+02	-2.52820046009E-01	-8.57138500019E+01
7.04000000000E+08	-3.06178368841E-01	-9.05657709764E+01	-6.78568731416E+01	+1.50844760016E+02	-6.80046479424E+01	+1.51345772735E+02	-2.51065838982E-01	-8.58836251298E+01
7.05000000000E+08	-3.05050864132E-01	-9.07561496362E+01	-6.79361145856E+01	+1.50591329824E+02	-6.79664642202E+01	+1.50147010369E+02	-2.49509341421E-01	-8.60554501452E+01
7.06000000000E+08	-3.04371404128E-01	-9.09510267023E+01	-6.79792980943E+01	+1.50270732975E+02	-6.80882210036E+01	+1.49756252748E+02	-2.48622674892E-01	-8.62376358457E+01
7.07000000000E+08	-3.05172130898E-01	-9.11467363675E+01	-6.77133867910E+01	+1.48547531895E+02	-6.77996250134E+01	+1.48947823135E+02	-2.49734192113E-01	-8.64274592419E+01
7.08000000000E+08	-3.06064612523E-01	-9.13447653862E+01	-6.77111555928E+01	+1.49629912009E+02	-6.78216599778E+01	+1.50218066617E+02	-2.51189462213E-01	-8.66086399939E+01
7.09000000000E+08	-3.08008103742E-01	-9.15458286394E+01	-6.77067183976E+01	+1.49721521106E+02	-6.77417727641E+01	+1.49768541349E+02	-2.53150600713E-01	-8.67941507080E+01
7.10000000000E+08	-3.11130904466E-01	-9.17518222042E+01	-6.76731442862E+01	+1.49264636983E+02	-6.77165941410E+01	+1.49346550577E+02	-2.55629808054E-01	-8.69794167384E+01
7.11000000000E+08	-3.16902191609E-01	-9.19480654195E+01	-6.76185118178E+01	+1.48629082031E+02	-6.76569158845E+01	+1.49387140408E+02	-2.60096522448E-01	-8.71589037392E+01
7.12000000000E+08	-3.23789310586E-01	-9.21264777257E+01	-6.77247881508E+01	+1.48987762524E+02	-6.78719360010E+01	+1.49096666516E+02	-2.63938859690E-01	-8.73270647793E+01
7.13000000000E+08	-3.26839656855E-01	-9.22923359055E+01	-6.75429531366E+01	+1.49177092729E+02	-6.77451601567E+01	+1.48529447972E+02	-2.65188774723E-01	-8.74902190659E+01
7.14000000000E+08	-3.28797818972E-01	-9.24705624244E+01	-6.77428916800E+01	+1.49621459249E+02	-6.78288517555E+01	+1.49361728009E+02	-2.66120818219E-01	-8.76635446324E+01
7.15000000000E+08	-3.30461156571E-01	-9.26568786778E+01	-6.74432212307E+01	+1.48567975920E+02	-6.75763209808E+01	+1.48879637240E+02	-2.68577009981E-01	-8.78598426233E+01
7.16000000000E+08	-3.33180018134E-01	-9.28571910957E+01	-6.74032329195E+01	+1.48593737693E+02	-6.74804053895E+01	+1.48816543689E+02	-2.71673944646E-01	-8.80466282204E+01
7.17000000000E+08	-3.38441093096E-01	-9.30576362872E+01	-6.72528414770E+01	+1.47935774100E+02	-6.73701779829E+01	+1.47649476462E+02	-2.77820277207E-01	-8.82479076361E+01
7.18000000000E+08	-3.45087159018E-01	-9.32495755777E+01	-6.73498825761E+01	+1.48136306428E+02	-6.74545619902E+01	+1.48717545117E+02	-2.85048327496E-01	-8.84329232980E+01
7.19000000000E+08	-3.50004137893E-01	-9.34255032880E+01	-6.69741940607E+01	+1.46926787054E+02	-6.70365547538E+01	+1.46944134754E+02	-2.94398641834E-01	-8.86176955188E+01
7.20000000000E+08	-3.54068971485E-01	-9.36233813138E+01	-6.73253214861E+01	+1.46057516526E+02	-6.74211518491E+01	+1.46402692211E+02	-3.04333686423E-01	-8.87869193045E+01
7.21000000000E+08	-3.60738524118E-01	-9.38228049957E+01	-6.68286238061E+01	+1.47361592310E+02	-6.69405087003E+01	+1.47604131266E+02	-3.11467878769E-01	-8.89330077882E+01
7.22000000000E+08	-3.69364723413E-01	-9.40166350474E+01	-6.69782915984E+01	+1.48551472684E+02	-6.70677221458E+01	+1.48702978298E+02	-3.18531523699E-01	-8.90742166563E+01
7.23000000000E+08	-3.78793953129E-01	-9.41966441420E+01	-6.70090173521E+01	+1.48325972305E+02	-6.71452377818E+01	+1.48456668341E+02	-3.23936852388E-01	-8.92313192021E+01
7.24000000000E+08	-3.89548428766E-01	-9.43602805731E+01	-6.70463022201E+01	+1.48492399424E+02	-6.71924660055E+01	+1.48563442171E+02	-3.26666387946E-01	-8.93715279226E+01
7.25000000000E+08	-3.99999614773E-01	-9.44929175833E+01	-6.67343501497E+01	+1.47271976984E+02	-6.68127839612E+01	+1.47758269887E+02	-3.28821911128E-01	-8.95603248029E+01
7.26000000000E+08	-4.02629449910E-01	-9.46105338375E+01	-6.69618175435E+01	+1.48355600725E+02	-6.70611681339E+01	+1.48410378218E+02	-3.39612911248E-01	-8.97567518502E+01
7.27000000000E+08	-4.03300177322E-01	-9.47777234969E+01	-6.69768433116E+01	+1.46961664410E+02	-6.70159472901E+01	+1.47569926991E+02	-3.52220116253E-01	-8.99044683804E+01
7.28000000000E+08	-4.08440281839E-01	-9.49823259684E+01	-6.65692470555E+01	+1.46093983787E+02	-6.67095519552E+01	+1.45860131459E+02	-3.61086556247E-01	-9.00355017921E+01
7.29000000000E+08	-4.20259517372E-01	-9.51534771128E+01	-6.65343666777E+01	+1.47589662737E+02	-6.65680883743E+01	+1.47714820750E+02	-3.66846476493E-01	-9.01509769270E+01
7.30000000000E+08	-4.33082137157E-01	-9.52719841893E+01	-6.64608360504E+01	+1.46252384874E+02	-6.66407399306E+01	+1.46666657379E+02	-3.68783477071E-01	-9.02565911902E+01
7.31000000000E+08	-4.32708883580E-01	-9.53675675131E+01	-6.67516070495E+01	+1.45924601792E+02	-6.68281402903E+01	+1.46062478938E+02	-3.70154595945E-01	-9.04312980062E+01
7.32000000000E+08	-4.28881789258E-01	-9.55234078437E+01	-6.62899955374E+01	+1.45644103108E+02	-6.63551213869E+01	+1.46473013266E+02	-3.76133267047E-01	-9.06030947411E+01
7.33000000000E+08	-4.28982118925E-01	-9.57197802387E+01	-6.63875409442E+01	+1.45063410588E+02	-6.65202163832E+01	+1.45313621439E+02	-3.78026916760E-01	-9.07329678733E+01
7.34000000000E+08	-4.32894594979E-01	-9.59057105628E+01	-6.65156607787E+01	+1.43415883333E+02	-6.66327934739E+01	+1.43358589101E+02	-3.82161292513E-01	-9.09248222057E+01
7.35000000000E+08	-4.43087539119E-01	-9.60946747311E+01	-6.61416181363E+01	+1.44517285588E+02	-6.63029853597E+01	+1.44579977430E+02	-3.96888678191E-01	-9.10896828630E+01
7.36000000000E+08	-4.52924724612E-01	-9.62310561464E+01	-6.65489202450E+01	+1.44376182592E+02	-6.66709796436E+01	+1.44240818388E+02	-4.07266342575E-01	-9.11813346375E+01
7.37000000000E+08	-4.57686076779E-01	-9.63320999323E+01	-6.67471885836E+01	+1.48399367792E+02	-6.68815015649E+01	+1.48542317093E+02	-4.06520805416E-01	-9.13064068940E+01
7.38000000000E+08	-4.61378282472E-01	-9.64762670521E+01	-6.64657010516E+01	+1.46025430176E+02	-6.65691515281E+01	+1.45923645718E+02	-4.18205325264E-01	-9.14561976248E+01
7.39000000000E+08	-4.62235541875E-01	-9.66152021665E+01	-6.57678493586E+01	+1.45553966406E+02	-6.58665273026E+01	+1.45720607223E+02	-4.22110549572E-01	-9.15446475726E+01
7.40000000000E+08	-4.68865189171E-01	-9.67496982900E+01	-6.56371529457E+01	+1.45260393671E+02	-6.57741539759E+01	+1.45435543781E+02	-4.22616069940E-01	-9.16595379711E+01
7.41000000000E+08	-4.69318357147E-01	-9.68505734238E+01	-6.60535377941E+01	+1.45956797149E+02	-6.61255879676E+01	+1.46373424715E+02	-4.22764890242E-01	-9.17564190495E+01
7.42000000000E+08	-4.64043065811E-01	-9.69823235129E+01	-6.57998745430E+01	+1.43195893166E+02	-6.58360958861E+01	+1.43357699931E+02	-4.17153158929E-01	-9.18693515564E+01
7.43000000000E+08	-4.60119004761E-01	-9.71305389144E+01	-6.58252579269E+01	+1.42800217285E+02	-6.59204993044E+01	+1.43105882503E+02	-4.14141538821E-01	-9.20486704933E+01
7.44000000000E+08	-4.56322361655E-01	-9.72643029018E+01	-6.55778270190E+01	+1.41827308126E+02	-6.56931607359E+01	+1.41982340214E+02	-4.20328203943E-01	-9.22180901348E+01
7.45000000000E+08	-4.43830484743E-01	-9.74173683546E+01	-6.58692713191E+01	+1.43733907545E+02	-6.59878439507E+01	+1.43680854104E+02	-4.22781541165E-01	-9.23333115003E+01
7.46000000000E+08	-4.39973129127E-01	-9.76467172312E+01	-6.54459468450E+01	+1.39404045146E+02	-6.55462742079E+01	+1.39697829320E+02	-4.19084621918E-01	-9.24745055710E+01
7.47000000000E+08	-4.36625159948E-01	-9.77976834695E+01	-6.60271016811E+01	+1.41279609494E+02	-6.61390279250E+01	+1.41782438093E+02	-4.19753028411E-01	-9.26228558625E+01
7.48000000000E+08	-4.25772567673E-01	-9.79740535193E+01	-6.55648721322E+01	+1.42575485065E+02	-6.56939091352E+01	+1.42749244524E+02	-4.13658497885E-01	-9.27179743589E+01
7.49000000000E+08	-4.16712845557E-01	-9.82570430731E+01	-6.56169156889E+01	+1.40588380981E+02	-6.57522762904E+01	+1.40908693092E+02	-4.02878336715E-01	-9.28913788124E+01
7.50000000000E+08	-4.28930636678E-01	-9.85195584337E+01	-6.58236101937E+01	+1.38662806821E+02	-6.58685646775E+01	+1.38864947894E+02	-4.00610120562E-01	-9.30770503467E+01
7.51000000000E+08	-4.49361872657E-01	-9.85860800430E+01	-6.53677825890E+01	+1.39061568480E+02	-6.54406781778E+01	+1.38828505073E+02	-3.96419145476E-01	-9.32478642929E+01
7.52000000000E+08	-4.24832471114E-01	-9.86397092295E+01	-6.58534055086E+01	+1.38034391060E+02	-6.59866988518E+01	+1.38266382424E+02	-3.92291290300E-01	-9.34246394713E+01
7.53000000000E+08	-4.06990674722E-01	-9.88828247937E+01	-6.59728370988E+01	+1.35630956368E+02	-6.60754427037E+01	+1.36059818518E+02	-3.86758790846E-01	-9.36163926931E+01
7.54000000000E+08	-4.00639350545E-01	-9.91435677611E+01	-6.54769654758E+01	+1.37839695103E+02	-6.55808188684E+01	+1.38109395510E+02	-3.82805631690E-01	-9.38231908133E+01
7.55000000000E+08	-3.96883062471E-01	-9.93688877561E+01	-6.57293465124E+01	+1.38056548930E+02	-6.58423210347E+01	+1.37854715435E+02	-3.79580787158E-01	-9.40325834364E+01
7.56000000000E+08	-3.92139869212E-01	-9.96055355795E+01	-6.58646275798E+01	+1.39474844963E+02	-6.59751645490E+01	+1.39581133716E+02	-3.79389737332E-01	-9.42380457686E+01
7.57000000000E+08	-3.89464567093E-01	-9.98529055682E+01	-6.57698322752E+01	+1.38472182972E+02	-6.59196280870E+01	+1.38392702952E+02	-3.78869288718E-01	-9.43948733792E+01
7.58000000000E+08	-3.86651715826E-01	-1.00058204797E+02	-6.58718894596E+01	+1.39615642934E+02	-6.59672483621E+01	+1.39429115693E+02	-3.70868289477E-01	-9.45907375519E+01
7.59000000000E+08	-3.78434789946E-01	-1.00282645506E+02	-6.57353816099E+01	+1.39380366165E+02	-6.58218284835E+01	+1.39476491102E+02	-3.65684955760E-01	-9.48170013850E+01
7.60000000000E+08	-3.71533567912E-01	-1.00554489057E+02	-6.59014797825E+01	+1.40508262942E+02	-6.60388210329E+01	+1.40546601857E+02	-3.60895682367E-01	-9.50384443808E+01
7.61000000000E+08	-3.68837605503E-01	-1.00831257111E+02	-6.55987277930E+01	+1.40223945287E+02	-6.57328449837E+01	+1.40101742519E+02	-3.57396728551E-01	-9.52923046444E+01
7.62000000000E+08	-3.67794335253E-01	-1.01097510216E+02	-6.56394540891E+01	+1.39752675414E+02	-6.57861453211E+01	+1.39603373214E+02	-3.55445901312E-01	-9.55474650003E+01
7.63000000000E+08	-3.66372715855E-01	-1.01365340432E+02	-6.53193503413E+01	+1.38579016466E+02	-6.54416264021E+01	+1.38941892265E+02	-3.54692551250E-01	-9.58026103678E+01
7.64000000000E+08	-3.63743834332E-01	-1.01644316973E+02	-6.55024431805E+01	+1.39997044599E+02	-6.57053143646E+01	+1.40287525185E+02	-3.54865990280E-01	-9.60562121418E+01
7.65000000000E+08	-3.63601765748E-01	-1.01934030977E+02	-6.51433999789E+01	+1.39311621718E+02	-6.52379641835E+01	+1.39602041599E+02	-3.55573485260E-01	-9.63134714437E+01
7.66000000000E+08	-3.65545835195E-01	-1.02227373003E+02	-6.51283162294E+01	+1.40134199605E+02	-6.52269926395E+01	+1.40640994280E+02	-3.58288210124E-01	-9.65873809080E+01
7.67000000000E+08	-3.70097809207E-01	-1.02518081141E+02	-6.52421611774E+01	+1.38596618377E+02	-6.53023138216E+01	+1.38636528620E+02	-3.62459766481E-01	-9.68496354889E+01
7.68000000000E+08	-3.72747192156E-01	-1.02776879489E+02	-6.50275854849E+01	+1.39655737442E+02	-6.51320860701E+01	+1.39750163195E+02	-3.67517726938E-01	-9.70987349292E+01
7.69000000000E+08	-3.76154806765E-01	-1.03072213264E+02	-6.48293461232E+01	+1.38934251200E+02	-6.48841281862E+01	+1.38886395744E+02	-3.70466935623E-01	-9.73712896495E+01
7.70000000000E+08	-3.81114868712E-01	-1.03369823938E+02	-6.48497849029E+01	+1.39081902921E+02	-6.49889742612E+01	+1.39197070374E+02	-3.75927910333E-01	-9.76525227750E+01
7.71000000000E+08	-3.87278100979E-01	-1.03686289090E+02	-6.46857214072E+01	+1.37429478695E+02	-6.46932967529E+01	+1.37369990948E+02	-3.81658947922E-01	-9.79474374934E+01
7.72000000000E+08	-3.95965649130E-01	-1.03996129015E+02	-6.46160305626E+01	+1.36157367755E+02	-6.47315670567E+01	+1.36201219641E+02	-3.92066547853E-01	-9.82310160736E+01
7.73000000000E+08	-4.04308238740E-01	-1.04296442589E+02	-6.45724747376E+01	+1.36946058850E+02	-6.46354184326E+01	+1.37010645791E+02	-4.02752648504E-01	-9.84983879928E+01
7.74000000000E+08	-4.16509953244E-01	-1.04619107977E+02	-6.45090712978E+01	+1.36269751990E+02	-6.46182390636E+01	+1.36538969233E+02	-4.12271971573E-01	-9.87683234884E+01
7.75000000000E+08	-4.31177973837E-01	-1.04905807956E+02	-6.46183337518E+01	+1.36732719332E+02	-6.46420815567E+01	+1.36676976747E+02	-4.21848410820E-01	-9.90659078464E+01
7.76000000000E+08	-4.44163976009E-01	-1.05175560013E+02	-6.42672603645E+01	+1.35394715014E+02	-6.43818325707E+01	+1.35247048880E+02	-4.32029285088E-01	-9.93761435572E+01
7.77000000000E+08	-4.57309119568E-01	-1.05476133541E+02	-6.42868496933E+01	+1.34310514974E+02	-6.44210592948E+01	+1.34515976346E+02	-4.52677497448E-01	-9.96612516416E+01
7.78000000000E+08	-4.71746508304E-01	-1.05778739678E+02	-6.45249307800E+01	+1.33706265281E+02	-6.46184770012E+01	+1.33596804953E+02	-4.68460346749E-01	-9.98892843756E+01
7.79000000000E+08	-4.93862720785E-01	-1.06059736227E+02	-6.39704535903E+01	+1.32647629217E+02	-6.41021718701E+01	+1.32873457453E+02	-4.77777099771E-01	-1.00164607500E+02
7.80000000000E+08	-5.09591752568E-01	-1.06326422615E+02	-6.38872909822E+01	+1.33598525939E+02	-6.39233464378E+01	+1.33635658943E+02	-5.04690011502E-01	-1.00473900433E+02
7.81000000000E+08	-5.24527534862E-01	-1.06637379243E+02	-6.44159236153E+01	+1.33574511313E+02	-6.44041175373E+01	+1.33608604307E+02	-5.31492452153E-01	-1.00721969905E+02
7.82000000000E+08	-5.50957915073E-01	-1.06919446541E+02	-6.38289894486E+01	+1.31400201387E+02	-6.38537459810E+01	+1.31509055037E+02	-5.44580141871E-01	-1.00950994114E+02
7.83000000000E+08	-5.73966629544E-01	-1.07140588073E+02	-6.41772531785E+01	+1.32658200889E+02	-6.42530859296E+01	+1.33066839589E+02	-5.72049506911E-01	-1.01227089131E+02
7.84000000000E+08	-5.94134940743E-01	-1.07349307380E+02	-6.42880859685E+01	+1.27133348480E+02	-6.43920542835E+01	+1.27004809344E+02	-5.88514670157E-01	-1.01391435089E+02
7.85000000000E+08	-6.10381173358E-01	-1.07609090975E+02	-6.39542612212E+01	+1.31375373838E+02	-6.40702682120E+01	+1.31545913986E+02	-6.06894766366E-01	-1.01599034478E+02
7.86000000000E+08	-6.30094300192E-01	-1.07865052754E+02	-6.36357200252E+01	+1.26862804680E+02	-6.37949572847E+01	+1.26625972110E+02	-6.35745629950E-01	-1.01735229477E+02
7.87000000000E+08	-6.54355301448E-01	-1.08101537316E+02	-6.44242507521E+01	+1.32829528719E+02	-6.45567446230E+01	+1.32623450544E+02	-6.31471259500E-01	-1.01868475474E+02
7.88000000000E+08	-6.90573134976E-01	-1.08353883107E+02	-6.44320225250E+01	+1.27368570017E+02	-6.45705580267E+01	+1.27080062955E+02	-6.35959730733E-01	-1.02230679972E+02
7.89000000000E+08	-7.24153079059E-01	-1.08448924176E+02	-6.34508641245E+01	+1.32382179152E+02	-6.35324564160E+01	+1.31909992116E+02	-6.73795366527E-01	-1.02585599776E+02
7.90000000000E+08	-7.42217698675E-01	-1.08428566586E+02	-6.46024329345E+01	+1.27620228970E+02	-6.47091081713E+01	+1.27923315094E+02	-6.88797342655E-01	-1.02721347743E+02
7.91000000000E+08	-7.26134803204E-01	-1.08570868951E+02	-6.39216626773E+01	+1.27626284296E+02	-6.39513132777E+01	+1.27983265285E+02	-7.01751561522E-01	-1.03048940426E+02
7.92000000000E+08	-7.13288309964E-01	-1.08892144297E+02	-6.36768703459E+01	+1.27782677441E+02	-6.37555081031E+01	+1.27771000105E+02	-7.54844081266E-01	-1.03307678647E+02
7.93000000000E+08	-7.42677140214E-01	-1.09291872085E+02	-6.46966166202E+01	+1.31361162298E+02	-6.48850600835E+01	+1.31409413263E+02	-8.00595795915E-01	-1.03178492496E+02
7.94000000000E+08	-7.95709202531E-01	-1.09627791640E+02	-6.51750454512E+01	+1.29346715736E+02	-6.53501236774E+01	+1.29291916444E+02	-8.00503707850E-01	-1.03038370452E+02
7.95000000000E+08	-8.42251506766E-01	-1.09483900936E+02	-6.56755565757E+01	+1.26708498208E+02	-6.57850255693E+01	+1.27130824292E+02	-7.79536397781E-01	-1.03107639557E+02
7.96000000000E+08	-8.35542531692E-01	-1.09310176109E+02	-6.40099145776E+01	+1.29133494210E+02	-6.41006644521E+01	+1.29126953294E+02	-7.43380117079E-01	-1.03386487066E+02
7.97000000000E+08	-7.82735906081E-01	-1.09382744463E+02	-6.38215195533E+01	+1.32117582511E+02	-6.39235801285E+01	+1.32045810991E+02	-7.38946745000E-01	-1.03897038761E+02
7.98000000000E+08	-7.47926021432E-01	-1.09832365293E+02	-6.38521018855E+01	+1.28404221217E+02	-6.38887511699E+01	+1.28574031728E+02	-7.76791634977E-01	-1.04344090992E+02
7.99000000000E+08	-7.66351283772E-01	-1.10388336682E+02	-6.46273944016E+01	+1.27265239533E+02	-6.47239011457E+01	+1.27070688717E+02	-8.15056042037E-01	-1.04519673290E+02
8.00000000000E+08	-8.31462042604E-01	-1.10732628024E+02	-6.42819804488E+01	+1.29620560384E+02	-6.43639126451E+01	+1.29815951132E+02	-8.47049604696E-01	-1.04718457644E+02
8.01000000000E+08	-8.89213703405E-01	-1.10463137405E+02	-6.41171872738E+01	+1.28952161649E+02	-6.41854350717E+01	+1.29013261397E+02	-9.09416573049E-01	-1.04647753913E+02
8.02000000000E+08	-8.29285410369E-01	-1.10198163060E+02	-6.31284447961E+01	+1.32534696007E+02	-6.32158550078E+01	+1.32945189415E+02	-8.90656093996E-01	-1.04232900501E+02
8.03000000000E+08	-7.58701339334E-01	-1.10620096829E+02	-6.31954017691E+01	+1.31837026831E+02	-6.32078020537E+01	+1.31606367185E+02	-8.12859163280E-01	-1.04477655094E+02
8.04000000000E+08	-7.46446667958E-01	-1.11189834081E+02	-6.36828052851E+01	+1.33246577363E+02	-6.38583225739E+01	+1.33592758678E+02	-7.93626620681E-01	-1.04977886827E+02
8.05000000000E+08	-7.67787116469E-01	-1.11694274757E+02	-6.35336925565E+01	+1.29945627341E+02	-6.36601003862E+01	+1.29863739114E+02	-7.74978884172E-01	-1.05386177781E+02
8.06000000000E+08	-8.16974378556E-01	-1.12024012957E+02	-6.29194029461E+01	+1.29713341161E+02	-6.30280074937E+01	+1.30068113226E+02	-7.81493506488E-01	-1.05814079891E+02
8.07000000000E+08	-8.57345865990E-01	-1.11875374680E+02	-6.39373061901E+01	+1.33277374987E+02	-6.40225092961E+01	+1.32945912341E+02	-8.01312980290E-01	-1.06161026054E+02
8.08000000000E+08	-8.00241069307E-01	-1.11695544053E+02	-6.30539361793E+01	+1.27649165548E+02	-6.31695699493E+01	+1.27552433101E+02	-8.19902079635E-01	-1.06351462933E+02
8.09000000000E+08	-7.23781734267E-01	-1.12111164977E+02	-6.28878852305E+01	+1.28070620598E+02	-6.29885460535E+01	+1.28204217568E+02	-8.41597669060E-01	-1.06474351005E+02
8.10000000000E+08	-6.98917893752E-01	-1.12716410248E+02	-6.27139976507E+01	+1.27147727645E+02	-6.27613208886E+01	+1.27311549673E+02	-8.33009582767E-01	-1.06402574832E+02
8.11000000000E+08	-7.09668580939E-01	-1.13257130231E+02	-6.24342558784E+01	+1.25511075782E+02	-6.24869631144E+01	+1.25753342230E+02	-7.65346836220E-01	-1.06519909399E+02
8.12000000000E+08	-7.33065116119E-01	-1.13602415153E+02	-6.19555194620E+01	+1.26499222006E+02	-6.20122915358E+01	+1.26466278086E+02	-7.12218456523E-01	-1.07142572330E+02
8.13000000000E+08	-7.31450883060E-01	-1.13699404243E+02	-6.20119197125E+01	+1.25103501489E+02	-6.20831477400E+01	+1.24895716830E+02	-7.06514085510E-01	-1.07738080978E+02
8.14000000000E+08	-6.86168199874E-01	-1.13951643660E+02	-6.19618646788E+01	+1.24302756073E+02	-6.20703920455E+01	+1.24315009585E+02	-7.02675988709E-01	-1.08138442402E+02
8.15000000000E+08	-6.41311679627E-01	-1.14431832984E+02	-6.21530344339E+01	+1.23256467174E+02	-6.22397280330E+01	+1.23193119860E+02	-6.92563237591E-01	-1.08642661942E+02
