! ASPAR, V1.5 8/31/04
! Network Analyzer Model: HP8753
! startf = 50.000 MHz, stopf = 12050.000 MHz, npoints = 1601
! averaging off
! IFBW = 1.000 kHz
! Sweep Time = 3.000 seconds
! Bias1: Not Used
! Bias2: Not Used
! Operator: 
! Comments1: Vcc=5V.  
! Comments2: DeEmbedded to edges of device leads.  
! Comments3: Preliminary.  
!              S11            S21              S12             S22

# MHZ  S  DB R  50 
50.000            -10.203   -48.970      24.093   163.629      -27.548   20.896      -15.791   -104.631
57.500            -10.887   -48.018      23.999   163.272      -28.123   13.432      -16.434   -109.610
65.000            -12.045   -47.293      23.872   163.606      -26.323   10.692      -18.012   -116.584
72.500            -12.145   -47.704      23.773   163.676      -27.949   17.127      -19.332   -123.224
80.000            -12.666   -47.048      23.729   163.645      -27.261   10.704      -19.592   -124.617
87.500            -12.787   -47.658      23.651   163.245      -27.520   12.880      -20.089   -127.242
95.000            -13.299   -46.919      23.594   162.816      -27.156   16.085      -21.269   -133.506
102.500            -13.388   -47.715      23.568   162.535      -26.771   8.433      -22.271   -141.724
110.000            -13.377   -47.771      23.480   162.237      -26.566   13.713      -22.610   -145.785
117.500            -13.718   -47.768      23.460   161.807      -26.612   8.768      -22.808   -151.010
125.000            -13.918   -47.780      23.442   161.278      -26.921   12.445      -22.854   -155.064
132.500            -14.003   -48.317      23.390   160.594      -26.983   13.363      -23.421   -158.107
140.000            -14.285   -48.792      23.333   160.209      -26.970   12.554      -23.623   -163.195
147.500            -14.176   -50.164      23.316   159.700      -26.739   13.147      -23.761   -167.859
155.000            -14.195   -49.552      23.290   159.122      -26.911   14.167      -24.376   -174.588
162.500            -14.328   -52.282      23.249   158.553      -26.962   14.309      -24.439   179.996
170.000            -14.438   -51.574      23.221   158.013      -26.563   13.979      -24.796   176.560
177.500            -14.510   -51.913      23.180   157.460      -26.767   14.813      -24.736   172.632
185.000            -14.549   -52.025      23.132   156.923      -26.566   14.195      -24.817   168.919
192.500            -14.517   -53.326      23.110   156.225      -26.463   14.361      -24.896   164.884
200.000            -14.648   -53.771      23.061   155.683      -26.564   14.756      -24.753   158.196
207.500            -14.630   -54.865      23.058   154.942      -26.750   14.650      -24.683   155.655
215.000            -14.667   -55.336      22.994   154.359      -26.585   13.704      -24.547   153.333
222.500            -14.618   -57.402      22.954   153.660      -26.466   15.571      -24.824   148.864
230.000            -14.855   -57.235      22.931   153.105      -26.487   15.457      -24.409   145.082
237.500            -14.787   -58.366      22.877   152.472      -26.567   15.108      -24.447   143.574
245.000            -14.844   -58.734      22.838   151.896      -26.671   15.732      -24.364   139.589
252.500            -14.800   -59.831      22.795   151.385      -26.435   17.103      -24.362   136.571
260.000            -14.778   -60.789      22.750   150.650      -26.465   15.873      -24.224   132.493
267.500            -14.843   -62.408      22.713   150.121      -26.400   16.377      -24.170   131.580
275.000            -14.712   -62.384      22.665   149.434      -26.492   17.224      -24.262   128.022
282.500            -14.746   -63.375      22.641   148.780      -26.458   18.450      -24.228   127.091
290.000            -14.863   -64.540      22.602   148.246      -26.635   17.105      -24.159   123.432
297.500            -14.835   -65.837      22.554   147.661      -26.456   17.646      -23.777   121.936
305.000            -14.916   -67.032      22.495   147.021      -26.513   18.128      -23.820   119.117
312.500            -14.921   -67.888      22.442   146.456      -26.525   18.737      -23.533   115.866
320.000            -14.904   -68.610      22.412   145.866      -26.506   19.126      -23.685   114.147
327.500            -14.912   -69.513      22.360   145.252      -26.420   19.104      -23.593   112.384
335.000            -14.934   -71.988      22.320   144.666      -26.283   19.971      -23.324   110.743
342.500            -14.965   -71.452      22.260   144.111      -26.204   20.122      -23.323   109.348
350.000            -14.914   -72.093      22.225   143.511      -26.134   19.741      -23.163   108.073
357.500            -14.957   -73.091      22.179   142.983      -26.292   20.982      -23.220   104.479
365.000            -14.933   -73.982      22.141   142.375      -26.228   21.400      -22.969   103.659
372.500            -14.971   -75.245      22.084   141.908      -26.292   21.493      -22.879   101.432
380.000            -14.986   -76.389      22.038   141.259      -26.150   21.744      -22.785   100.115
387.500            -14.981   -77.047      21.995   140.670      -26.049   22.061      -22.712   97.445
395.000            -15.004   -77.924      21.934   140.089      -26.201   22.254      -22.624   96.810
402.500            -15.004   -78.881      21.900   139.484      -26.031   22.771      -22.459   94.283
410.000            -14.990   -79.753      21.839   139.024      -26.148   23.119      -22.228   93.061
417.500            -14.992   -80.606      21.788   138.477      -26.037   23.084      -22.358   91.262
425.000            -14.996   -81.589      21.741   137.888      -26.010   23.283      -22.354   91.250
432.500            -14.987   -82.282      21.696   137.434      -26.049   24.081      -22.109   89.980
440.000            -15.032   -83.385      21.646   136.897      -26.038   24.112      -22.080   88.228
447.500            -14.971   -84.344      21.588   136.435      -25.952   24.027      -21.943   87.274
455.000            -14.977   -85.024      21.539   135.955      -25.929   24.743      -21.971   86.806
462.500            -15.029   -86.033      21.491   135.340      -25.832   24.789      -21.836   84.293
470.000            -14.997   -87.001      21.439   134.765      -25.878   25.302      -21.806   83.013
477.500            -15.051   -87.588      21.377   134.330      -25.838   25.505      -21.645   82.301
485.000            -14.972   -88.299      21.350   133.804      -25.696   26.077      -21.693   81.521
492.500            -15.029   -88.996      21.285   133.304      -25.776   26.525      -21.614   80.474
500.000            -15.030   -89.635      21.238   132.896      -25.690   26.544      -21.434   78.674
507.500            -14.936   -92.646      21.184   132.344      -25.668   27.103      -21.439   77.489
515.000            -15.056   -91.457      21.132   131.951      -25.618   27.251      -21.262   76.094
522.500            -15.008   -92.700      21.080   131.388      -25.549   27.640      -21.232   75.610
530.000            -15.081   -92.874      21.034   130.904      -25.645   27.409      -21.153   74.639
537.500            -15.063   -94.166      20.968   130.490      -25.488   28.516      -21.083   73.893
545.000            -15.060   -94.798      20.930   130.006      -25.477   28.551      -20.987   72.371
552.500            -15.085   -95.360      20.870   129.490      -25.484   28.713      -21.035   71.660
560.000            -15.093   -96.347      20.821   129.016      -25.479   28.802      -20.980   71.015
567.500            -15.112   -96.987      20.771   128.527      -25.378   29.239      -20.787   70.233
575.000            -15.022   -97.861      20.710   128.193      -25.420   29.231      -20.818   68.671
582.500            -14.990   -98.500      20.666   127.573      -25.312   29.623      -20.752   68.517
590.000            -14.999   -99.676      20.619   127.241      -25.338   30.315      -20.690   67.283
597.500            -15.029   -100.128      20.555   126.835      -25.234   30.116      -20.639   66.569
605.000            -15.078   -101.203      20.508   126.353      -25.187   30.363      -20.561   66.049
612.500            -15.091   -101.704      20.469   125.951      -25.218   30.954      -20.572   65.249
620.000            -15.086   -102.464      20.405   125.543      -25.172   30.843      -20.481   64.105
627.500            -15.108   -103.060      20.351   125.096      -25.106   30.801      -20.445   63.697
635.000            -15.105   -103.511      20.304   124.613      -25.050   31.631      -20.348   62.848
642.500            -15.119   -104.239      20.250   124.299      -25.059   31.565      -20.293   61.909
650.000            -15.108   -104.873      20.181   123.860      -25.005   32.191      -20.323   61.519
657.500            -15.090   -105.774      20.143   123.478      -24.990   32.404      -20.201   60.409
665.000            -15.097   -106.587      20.083   122.977      -24.926   32.144      -20.229   59.976
672.500            -15.091   -107.290      20.054   122.503      -24.903   32.777      -20.122   59.251
680.000            -15.128   -107.892      19.986   122.180      -24.857   32.705      -20.162   58.274
687.500            -15.098   -108.643      19.937   121.819      -24.756   32.954      -20.070   58.018
695.000            -15.111   -109.311      19.889   121.436      -24.780   33.988      -20.092   57.128
702.500            -15.171   -109.770      19.846   121.087      -24.686   33.863      -19.895   56.315
710.000            -15.121   -110.034      19.810   120.531      -24.654   33.630      -19.975   55.988
717.500            -15.088   -110.992      19.730   120.168      -24.640   33.797      -19.910   54.828
725.000            -15.157   -111.362      19.659   119.869      -24.565   34.611      -19.796   54.734
732.500            -15.125   -112.282      19.634   119.463      -24.514   34.143      -19.868   53.294
740.000            -15.111   -112.863      19.581   119.302      -24.431   34.338      -19.793   53.432
747.500            -15.112   -113.509      19.526   118.895      -24.486   34.706      -19.729   52.457
755.000            -15.153   -114.326      19.487   118.386      -24.408   35.062      -19.698   51.920
762.500            -15.175   -114.691      19.436   118.127      -24.384   35.463      -19.633   51.057
770.000            -15.168   -115.376      19.364   117.691      -24.313   35.784      -19.650   50.725
777.500            -15.196   -115.664      19.314   117.262      -24.337   35.375      -19.588   50.273
785.000            -15.181   -116.304      19.272   116.892      -24.306   35.611      -19.625   49.610
792.500            -15.143   -116.841      19.229   116.430      -24.275   36.046      -19.501   49.594
800.000            -15.165   -117.515      19.147   116.413      -24.195   36.212      -19.482   48.610
807.500            -15.149   -117.582      19.095   115.958      -24.164   36.621      -19.479   48.290
815.000            -15.120   -118.809      19.081   115.470      -24.086   36.560      -19.431   47.569
822.500            -15.157   -119.642      19.012   115.188      -24.024   36.960      -19.412   46.882
830.000            -15.181   -120.132      18.983   115.139      -24.017   36.761      -19.422   46.422
837.500            -15.187   -120.566      18.931   114.329      -23.968   37.185      -19.303   45.822
845.000            -15.260   -120.684      18.889   114.150      -23.934   37.809      -19.299   45.114
852.500            -15.100   -122.460      18.828   113.985      -23.923   37.670      -19.233   44.979
860.000            -15.275   -121.100      18.771   113.566      -23.894   37.850      -19.285   44.324
867.500            -15.136   -122.689      18.730   113.299      -23.822   37.803      -19.211   44.757
875.000            -15.164   -122.876      18.685   112.894      -23.812   37.843      -19.163   43.467
882.500            -15.168   -123.645      18.636   112.653      -23.705   37.969      -19.168   42.972
890.000            -15.205   -124.197      18.578   112.263      -23.715   38.216      -19.113   42.728
897.500            -15.183   -124.847      18.564   111.894      -23.619   38.661      -19.125   42.081
905.000            -15.223   -125.313      18.487   111.518      -23.611   38.771      -19.090   41.737
912.500            -15.237   -125.726      18.460   111.338      -23.539   38.735      -19.084   41.030
920.000            -15.270   -126.043      18.390   110.955      -23.501   38.844      -19.054   40.703
927.500            -15.231   -126.470      18.328   110.609      -23.518   39.201      -19.043   40.358
935.000            -15.244   -126.583      18.314   110.444      -23.460   38.996      -19.022   39.747
942.500            -15.200   -127.267      18.243   110.018      -23.391   39.370      -18.971   39.260
950.000            -15.194   -127.745      18.212   109.671      -23.358   39.368      -18.913   38.595
957.500            -15.208   -128.477      18.176   109.404      -23.322   39.571      -18.930   38.164
965.000            -15.258   -129.034      18.103   109.200      -23.266   39.840      -18.942   37.782
972.500            -15.266   -129.496      18.066   108.945      -23.232   39.516      -18.903   37.600
980.000            -15.282   -129.964      18.021   108.681      -23.209   39.884      -18.856   37.031
987.500            -15.281   -130.147      17.988   108.278      -23.182   40.366      -18.814   36.602
995.000            -15.275   -130.665      17.924   107.911      -23.122   40.320      -18.805   36.341
1002.500            -15.269   -131.182      17.881   107.743      -23.124   40.460      -18.753   35.827
1010.000            -15.284   -131.568      17.835   107.386      -23.022   40.244      -18.761   35.622
1017.500            -15.265   -131.880      17.772   107.161      -23.026   40.625      -18.717   35.297
1025.000            -15.249   -132.568      17.756   106.890      -22.986   40.766      -18.686   34.645
1032.500            -15.241   -133.021      17.693   106.825      -22.942   40.789      -18.670   34.131
1040.000            -15.269   -133.472      17.658   106.300      -22.905   40.701      -18.661   33.672
1047.500            -15.308   -134.193      17.609   106.112      -22.811   40.779      -18.677   33.743
1055.000            -15.330   -134.485      17.555   105.949      -22.798   41.249      -18.624   33.056
1062.500            -15.331   -134.781      17.543   105.466      -22.789   40.928      -18.593   32.753
1070.000            -15.356   -135.131      17.492   105.142      -22.698   41.319      -18.594   32.437
1077.500            -15.355   -135.315      17.431   105.009      -22.671   41.249      -18.557   31.770
1085.000            -15.337   -135.630      17.398   104.651      -22.664   41.563      -18.539   31.698
1092.500            -15.350   -136.282      17.365   104.388      -22.648   41.759      -18.498   31.263
1100.000            -15.300   -136.682      17.303   104.110      -22.564   41.500      -18.474   30.847
1107.500            -15.295   -137.299      17.268   103.979      -22.543   41.956      -18.494   30.417
1115.000            -15.348   -137.758      17.233   103.652      -22.496   41.932      -18.476   30.266
1122.500            -15.347   -138.091      17.168   103.391      -22.453   41.888      -18.436   29.845
1130.000            -15.379   -138.618      17.151   103.195      -22.430   41.873      -18.412   29.576
1137.500            -15.422   -138.817      17.076   102.899      -22.389   42.118      -18.391   29.055
1145.000            -15.400   -139.078      17.045   102.558      -22.334   42.217      -18.358   28.664
1152.500            -15.386   -139.337      17.000   102.386      -22.328   42.449      -18.377   28.470
1160.000            -15.387   -139.820      16.967   102.095      -22.247   42.590      -18.351   27.978
1167.500            -15.350   -140.161      16.920   101.980      -22.203   42.575      -18.328   27.604
1175.000            -15.368   -140.587      16.880   101.798      -22.182   42.550      -18.331   27.265
1182.500            -15.373   -141.208      16.849   101.443      -22.192   42.862      -18.316   26.830
1190.000            -15.382   -141.416      16.784   101.216      -22.142   42.959      -18.269   26.972
1197.500            -15.424   -142.076      16.743   100.762      -22.085   43.133      -18.219   26.215
1205.000            -15.430   -142.441      16.710   100.542      -22.032   42.739      -18.244   26.222
1212.500            -15.440   -142.705      16.673   100.408      -22.028   42.992      -18.235   25.840
1220.000            -15.437   -142.606      16.625   100.206      -21.956   43.281      -18.190   25.239
1227.500            -15.461   -143.014      16.563   99.803      -21.878   43.380      -18.205   25.140
1235.000            -15.416   -143.387      16.557   99.780      -21.850   43.117      -18.172   24.809
1242.500            -15.409   -143.927      16.510   99.414      -21.832   43.275      -18.159   24.517
1250.000            -15.440   -144.387      16.465   99.306      -21.819   43.188      -18.158   24.276
1257.500            -15.419   -144.842      16.426   99.182      -21.800   43.625      -18.135   24.019
1265.000            -15.423   -145.224      16.395   98.642      -21.742   43.533      -18.098   23.485
1272.500            -15.487   -145.450      16.344   98.562      -21.714   43.537      -18.101   23.185
1280.000            -15.530   -145.990      16.325   98.371      -21.640   43.610      -18.102   23.076
1287.500            -15.529   -146.230      16.271   98.078      -21.608   43.690      -18.062   22.520
1295.000            -15.488   -146.484      16.226   97.988      -21.605   43.734      -18.047   22.463
1302.500            -15.473   -146.540      16.191   97.550      -21.572   43.493      -17.994   21.930
1310.000            -15.465   -146.769      16.140   97.304      -21.514   43.707      -18.021   21.744
1317.500            -15.472   -147.472      16.091   97.102      -21.493   43.679      -17.995   21.220
1325.000            -15.487   -147.776      16.082   96.920      -21.453   44.037      -17.977   21.274
1332.500            -15.475   -148.214      16.043   96.929      -21.384   43.967      -17.977   20.794
1340.000            -15.530   -148.362      15.999   96.397      -21.379   43.981      -17.974   20.767
1347.500            -15.557   -149.013      15.959   96.341      -21.335   43.955      -17.963   20.237
1355.000            -15.566   -149.172      15.917   96.023      -21.310   44.023      -17.899   19.819
1362.500            -15.554   -149.729      15.875   95.819      -21.290   44.089      -17.908   19.717
1370.000            -15.510   -149.889      15.863   95.757      -21.234   44.095      -17.856   19.562
1377.500            -15.755   -148.669      15.810   95.326      -21.189   43.979      -17.917   18.898
1385.000            -15.584   -150.021      15.758   95.131      -21.151   44.303      -17.879   18.282
1392.500            -15.500   -150.798      15.737   95.132      -21.154   44.087      -17.857   18.606
1400.000            -15.532   -151.300      15.705   94.863      -21.102   44.284      -17.851   18.553
1407.500            -15.561   -151.757      15.664   94.503      -21.066   44.193      -17.851   18.052
1415.000            -15.604   -151.914      15.629   94.433      -21.040   44.230      -17.832   17.859
1422.500            -15.611   -152.247      15.588   94.130      -21.001   44.527      -17.788   17.797
1430.000            -15.653   -152.456      15.538   93.952      -20.954   44.269      -17.834   17.366
1437.500            -15.626   -152.458      15.511   93.607      -20.923   44.600      -17.751   17.179
1445.000            -15.630   -152.641      15.482   93.523      -20.904   44.571      -17.759   16.682
1452.500            -15.662   -153.023      15.424   93.326      -20.841   44.542      -17.760   16.474
