# Hz S DB R 50
! Planar, Obzor-808, 19035835, 20.4.1/1
! Date: 08.06.2021 11:48:21
! Data: Format (Calibration Info)
! Freq	S11:dB/Ang(F2)	S41:dB/Ang(F2)	S14:dB/Ang(F2)	S44:dB/Ang(F2)
8.24000000000E+08	-5.30222403336E-01	-1.20262624574E+02	-6.20177633825E+01	+1.20011138397E+02	-6.20526771262E+01	+1.19598827352E+02	-6.22361967881E-01	-1.13998483948E+02
8.24100000000E+08	-5.30540594072E-01	-1.20345928505E+02	-6.19228544921E+01	+1.20399884678E+02	-6.20263333188E+01	+1.20390342353E+02	-6.22723038907E-01	-1.14081880877E+02
8.24200000000E+08	-5.30790251336E-01	-1.20425347900E+02	-6.18177599045E+01	+1.20830292659E+02	-6.19386406156E+01	+1.20862417481E+02	-6.23373768572E-01	-1.14165189466E+02
8.24300000000E+08	-5.30796445987E-01	-1.20508227413E+02	-6.17319944008E+01	+1.20874000623E+02	-6.18330306937E+01	+1.20548705296E+02	-6.24071860165E-01	-1.14246352110E+02
8.24400000000E+08	-5.31269203637E-01	-1.20588265302E+02	-6.16766423988E+01	+1.20290112753E+02	-6.17515936266E+01	+1.19993263698E+02	-6.25182609676E-01	-1.14327676140E+02
8.24500000000E+08	-5.31238405549E-01	-1.20668223426E+02	-6.17379832705E+01	+1.19511742857E+02	-6.18189257239E+01	+1.19551527006E+02	-6.26127479610E-01	-1.14410969592E+02
8.24600000000E+08	-5.31224785051E-01	-1.20750339548E+02	-6.17409775227E+01	+1.19717853728E+02	-6.18589742795E+01	+1.19785004722E+02	-6.27238954204E-01	-1.14492651636E+02
8.24700000000E+08	-5.31041980113E-01	-1.20836058671E+02	-6.18377396680E+01	+1.20263138131E+02	-6.18995135244E+01	+1.20131579008E+02	-6.28290357756E-01	-1.14573909593E+02
8.24800000000E+08	-5.31279556761E-01	-1.20923236013E+02	-6.17261241994E+01	+1.20821666154E+02	-6.18115262040E+01	+1.20505930621E+02	-6.29384928570E-01	-1.14654203005E+02
8.24900000000E+08	-5.31647465410E-01	-1.21013033295E+02	-6.16919195674E+01	+1.20391378701E+02	-6.17535897823E+01	+1.20415576541E+02	-6.30571380982E-01	-1.14736818154E+02
8.25000000000E+08	-5.32625312980E-01	-1.21102090584E+02	-6.17141373601E+01	+1.20131832087E+02	-6.17917919484E+01	+1.20189888896E+02	-6.31461861821E-01	-1.14819144792E+02
8.25100000000E+08	-5.33775480147E-01	-1.21190196657E+02	-6.16980366150E+01	+1.20575529386E+02	-6.17338145481E+01	+1.20732212241E+02	-6.32392358605E-01	-1.14899525547E+02
8.25200000000E+08	-5.35127089058E-01	-1.21275626104E+02	-6.15653186890E+01	+1.20709053104E+02	-6.16795945470E+01	+1.20577155685E+02	-6.33588104773E-01	-1.14982240492E+02
8.25300000000E+08	-5.36435164719E-01	-1.21358116605E+02	-6.14950688701E+01	+1.20199200255E+02	-6.15946117545E+01	+1.19938628852E+02	-6.34911054308E-01	-1.15065463733E+02
8.25400000000E+08	-5.37578656814E-01	-1.21443002560E+02	-6.15467294188E+01	+1.19122765383E+02	-6.16095813467E+01	+1.19014508581E+02	-6.36154488598E-01	-1.15148088252E+02
8.25500000000E+08	-5.38789743705E-01	-1.21531729685E+02	-6.16613029015E+01	+1.18918785925E+02	-6.18131292213E+01	+1.19059875678E+02	-6.37584278972E-01	-1.15232307685E+02
8.25600000000E+08	-5.40314135550E-01	-1.21616674400E+02	-6.16752672722E+01	+1.19376000425E+02	-6.17570386287E+01	+1.19349159106E+02	-6.38709021493E-01	-1.15316553625E+02
8.25700000000E+08	-5.41287518613E-01	-1.21701015545E+02	-6.17065584383E+01	+1.19561388652E+02	-6.17670144759E+01	+1.19864425472E+02	-6.40341187412E-01	-1.15404585823E+02
8.25800000000E+08	-5.42624077507E-01	-1.21788818137E+02	-6.16840116618E+01	+1.19699417861E+02	-6.17683783378E+01	+1.19788954915E+02	-6.42031576392E-01	-1.15490739659E+02
8.25900000000E+08	-5.43715895948E-01	-1.21872287962E+02	-6.17789147527E+01	+1.20142982713E+02	-6.18438088100E+01	+1.19873803482E+02	-6.44036621724E-01	-1.15577777344E+02
8.26000000000E+08	-5.44955248166E-01	-1.21960757424E+02	-6.17448749502E+01	+1.20873519503E+02	-6.18413110859E+01	+1.21023012175E+02	-6.46112858081E-01	-1.15665880867E+02
8.26100000000E+08	-5.46120077521E-01	-1.22048261692E+02	-6.16767787593E+01	+1.21511141072E+02	-6.17657465502E+01	+1.21177301843E+02	-6.47749104287E-01	-1.15746656868E+02
8.26200000000E+08	-5.47530750491E-01	-1.22135198596E+02	-6.15526414872E+01	+1.21853444995E+02	-6.16827336505E+01	+1.21615816846E+02	-6.49201589932E-01	-1.15830366085E+02
8.26300000000E+08	-5.49040597785E-01	-1.22222432615E+02	-6.14240943187E+01	+1.21696460949E+02	-6.15072170363E+01	+1.21672674116E+02	-6.50874931979E-01	-1.15915737919E+02
8.26400000000E+08	-5.50488684034E-01	-1.22309122481E+02	-6.13740341795E+01	+1.21272467060E+02	-6.14229149483E+01	+1.21131037511E+02	-6.52670626817E-01	-1.16004815998E+02
8.26500000000E+08	-5.51489992513E-01	-1.22396888047E+02	-6.13435577051E+01	+1.20582205598E+02	-6.14089892214E+01	+1.20585342915E+02	-6.54658024500E-01	-1.16092882739E+02
8.26600000000E+08	-5.52822875508E-01	-1.22486368700E+02	-6.13562631488E+01	+1.20233457021E+02	-6.14115118825E+01	+1.20280549950E+02	-6.57005826339E-01	-1.16181408104E+02
8.26700000000E+08	-5.54083301011E-01	-1.22579829575E+02	-6.13486299323E+01	+1.20236543773E+02	-6.13863782321E+01	+1.20307778754E+02	-6.59599501371E-01	-1.16274148541E+02
8.26800000000E+08	-5.56052894709E-01	-1.22673711291E+02	-6.13029331930E+01	+1.19973447858E+02	-6.13512130215E+01	+1.19995358866E+02	-6.62474204429E-01	-1.16361444270E+02
8.26900000000E+08	-5.57984616395E-01	-1.22766567770E+02	-6.13190703338E+01	+1.19414088751E+02	-6.13839868601E+01	+1.19345870356E+02	-6.65076557318E-01	-1.16445012143E+02
8.27000000000E+08	-5.60044128801E-01	-1.22856382712E+02	-6.13981562483E+01	+1.19225330676E+02	-6.14414307000E+01	+1.18970792274E+02	-6.67693545690E-01	-1.16529407125E+02
8.27100000000E+08	-5.62109248577E-01	-1.22945341832E+02	-6.14746340509E+01	+1.19359833693E+02	-6.15510560929E+01	+1.19246603886E+02	-6.69627650709E-01	-1.16614791216E+02
8.27200000000E+08	-5.64135285977E-01	-1.23035713186E+02	-6.14980481609E+01	+1.20466671208E+02	-6.16075867674E+01	+1.20534968459E+02	-6.71586700425E-01	-1.16701433980E+02
8.27300000000E+08	-5.66235048499E-01	-1.23131257737E+02	-6.13583780947E+01	+1.21158206175E+02	-6.14592241672E+01	+1.21379475026E+02	-6.73451378280E-01	-1.16786227792E+02
8.27400000000E+08	-5.68516975951E-01	-1.23220816134E+02	-6.12059368210E+01	+1.20818134760E+02	-6.13075391620E+01	+1.20897758453E+02	-6.75340105198E-01	-1.16877727043E+02
8.27500000000E+08	-5.70797560103E-01	-1.23313243265E+02	-6.11436648065E+01	+1.20102600945E+02	-6.12117106907E+01	+1.20415102715E+02	-6.77747412933E-01	-1.16969872982E+02
8.27600000000E+08	-5.73101764913E-01	-1.23403569150E+02	-6.11439658906E+01	+1.20051197882E+02	-6.12357459547E+01	+1.19834650910E+02	-6.80143677782E-01	-1.17062273873E+02
8.27700000000E+08	-5.75396741340E-01	-1.23496579149E+02	-6.11340901079E+01	+1.19794587717E+02	-6.12113350683E+01	+1.19602992436E+02	-6.82319048493E-01	-1.17155268528E+02
8.27800000000E+08	-5.77601491047E-01	-1.23590671505E+02	-6.10840916611E+01	+1.19632614352E+02	-6.12064602437E+01	+1.19642437660E+02	-6.85285644465E-01	-1.17248368158E+02
8.27900000000E+08	-5.79967310060E-01	-1.23683929111E+02	-6.11072079160E+01	+1.19493134750E+02	-6.12150645676E+01	+1.19244090170E+02	-6.87947585528E-01	-1.17344661565E+02
8.28000000000E+08	-5.82397973475E-01	-1.23777610778E+02	-6.11054093262E+01	+1.19100409912E+02	-6.12028632625E+01	+1.18985009250E+02	-6.90928036127E-01	-1.17438407249E+02
8.28100000000E+08	-5.85319246910E-01	-1.23872033135E+02	-6.11536361901E+01	+1.19146576483E+02	-6.12807070919E+01	+1.18928108434E+02	-6.94000716352E-01	-1.17531015749E+02
8.28200000000E+08	-5.87986169280E-01	-1.23967927460E+02	-6.11354133857E+01	+1.19351357041E+02	-6.12217835499E+01	+1.19189073751E+02	-6.97229633359E-01	-1.17624658068E+02
8.28300000000E+08	-5.90709061100E-01	-1.24063626426E+02	-6.10752504520E+01	+1.18844604935E+02	-6.11894471604E+01	+1.18804475557E+02	-7.00825085518E-01	-1.17719385167E+02
8.28400000000E+08	-5.93881896337E-01	-1.24162310236E+02	-6.11686992071E+01	+1.18797773632E+02	-6.12022098752E+01	+1.18705161531E+02	-7.04618503223E-01	-1.17810258643E+02
8.28500000000E+08	-5.97189167500E-01	-1.24258764384E+02	-6.11427621980E+01	+1.19344973770E+02	-6.12410267416E+01	+1.19355496021E+02	-7.08195229790E-01	-1.17904367830E+02
8.28600000000E+08	-6.00651385212E-01	-1.24355487701E+02	-6.10639730948E+01	+1.19610163604E+02	-6.11014893747E+01	+1.19494012966E+02	-7.11815981405E-01	-1.17997278535E+02
8.28700000000E+08	-6.03859461537E-01	-1.24447275310E+02	-6.09658914110E+01	+1.19092802044E+02	-6.10523377261E+01	+1.19033280098E+02	-7.15488580318E-01	-1.18087100564E+02
8.28800000000E+08	-6.07116622091E-01	-1.24541030269E+02	-6.09351220552E+01	+1.18686596659E+02	-6.10687702821E+01	+1.18375894565E+02	-7.19277010424E-01	-1.18179397113E+02
8.28900000000E+08	-6.10656433082E-01	-1.24633896410E+02	-6.09543225250E+01	+1.17861133029E+02	-6.10368232353E+01	+1.18056323014E+02	-7.22829211903E-01	-1.18268124570E+02
8.29000000000E+08	-6.13650927891E-01	-1.24731640407E+02	-6.10135026169E+01	+1.17787547004E+02	-6.10927306279E+01	+1.17852714644E+02	-7.26300133047E-01	-1.18361437155E+02
8.29100000000E+08	-6.16832629334E-01	-1.24824965944E+02	-6.10577216369E+01	+1.17584578967E+02	-6.11404489189E+01	+1.17610099149E+02	-7.29707627248E-01	-1.18454335190E+02
8.29200000000E+08	-6.19982691667E-01	-1.24920660324E+02	-6.10902597352E+01	+1.18490876795E+02	-6.11765874627E+01	+1.18467871910E+02	-7.33421408592E-01	-1.18550221371E+02
8.29300000000E+08	-6.23303427006E-01	-1.25016558419E+02	-6.09222897241E+01	+1.18858582401E+02	-6.10363452183E+01	+1.18638865885E+02	-7.36860607386E-01	-1.18647297691E+02
8.29400000000E+08	-6.26475109277E-01	-1.25113430128E+02	-6.08788852209E+01	+1.18099835846E+02	-6.09260653549E+01	+1.18210082007E+02	-7.40972575595E-01	-1.18740816053E+02
8.29500000000E+08	-6.29831230268E-01	-1.25210855343E+02	-6.08181229141E+01	+1.17640037447E+02	-6.09293529484E+01	+1.17617613443E+02	-7.45333173311E-01	-1.18836439511E+02
8.29600000000E+08	-6.32800665499E-01	-1.25306685452E+02	-6.08516328699E+01	+1.17300821893E+02	-6.09522720251E+01	+1.17190606156E+02	-7.49371666583E-01	-1.18928878861E+02
8.29700000000E+08	-6.36127389584E-01	-1.25406212804E+02	-6.08486011980E+01	+1.17301766779E+02	-6.09518980731E+01	+1.17042720591E+02	-7.53569903869E-01	-1.19023744052E+02
8.29800000000E+08	-6.39227682028E-01	-1.25508235488E+02	-6.08449146489E+01	+1.17159933149E+02	-6.09934521084E+01	+1.17342540407E+02	-7.57820452532E-01	-1.19116942946E+02
8.29900000000E+08	-6.42131818919E-01	-1.25606891077E+02	-6.07570358912E+01	+1.17206775221E+02	-6.08612012546E+01	+1.17102910817E+02	-7.61827172492E-01	-1.19210070947E+02
8.30000000000E+08	-6.45463854618E-01	-1.25715677774E+02	-6.07263018667E+01	+1.16185205121E+02	-6.08242298320E+01	+1.16184149054E+02	-7.65434713652E-01	-1.19305518319E+02
8.30100000000E+08	-6.48968516154E-01	-1.25824629115E+02	-6.08366232006E+01	+1.15752763959E+02	-6.09371769744E+01	+1.15819593462E+02	-7.69102421078E-01	-1.19400202519E+02
8.30200000000E+08	-6.53160788794E-01	-1.25932906631E+02	-6.07838230557E+01	+1.16114718471E+02	-6.08911452389E+01	+1.16167048497E+02	-7.73279754668E-01	-1.19497583409E+02
8.30300000000E+08	-6.57430085671E-01	-1.26042782892E+02	-6.06648118377E+01	+1.14867666813E+02	-6.07819297534E+01	+1.14935119189E+02	-7.77799023819E-01	-1.19596014788E+02
8.30400000000E+08	-6.62426474265E-01	-1.26152950310E+02	-6.08036083669E+01	+1.13691248372E+02	-6.09100827069E+01	+1.13387252728E+02	-7.81304842115E-01	-1.19690204901E+02
8.30500000000E+08	-6.67534551312E-01	-1.26261922461E+02	-6.10653889399E+01	+1.13293338591E+02	-6.11494705468E+01	+1.13262983701E+02	-7.84499629934E-01	-1.19789431883E+02
8.30600000000E+08	-6.73284302119E-01	-1.26370988790E+02	-6.12250580218E+01	+1.14262187622E+02	-6.13293998218E+01	+1.14249160352E+02	-7.88796490376E-01	-1.19893806882E+02
8.30700000000E+08	-6.79482841483E-01	-1.26479994067E+02	-6.12061003881E+01	+1.15939100112E+02	-6.13144042763E+01	+1.15677104014E+02	-7.93154665651E-01	-1.19997411426E+02
8.30800000000E+08	-6.85919089702E-01	-1.26588371643E+02	-6.10377558826E+01	+1.16520027342E+02	-6.11680063891E+01	+1.16485923145E+02	-7.97144446833E-01	-1.20097713279E+02
8.30900000000E+08	-6.92182934064E-01	-1.26685690227E+02	-6.08635769899E+01	+1.16486632119E+02	-6.09159123222E+01	+1.16169298629E+02	-8.01955608010E-01	-1.20200501249E+02
8.31000000000E+08	-6.98094380170E-01	-1.26788035291E+02	-6.07295965246E+01	+1.15047887332E+02	-6.08177293690E+01	+1.14982016779E+02	-8.07713574973E-01	-1.20306128638E+02
8.31100000000E+08	-7.03933971764E-01	-1.26894662878E+02	-6.07960900071E+01	+1.13661520162E+02	-6.09011711630E+01	+1.13584289975E+02	-8.12589762482E-01	-1.20408760602E+02
8.31200000000E+08	-7.10047440160E-01	-1.26997214358E+02	-6.09488750106E+01	+1.13004190264E+02	-6.10046650503E+01	+1.12961496371E+02	-8.17187787780E-01	-1.20509715047E+02
8.31300000000E+08	-7.16809779132E-01	-1.27106520997E+02	-6.10911318303E+01	+1.13705997555E+02	-6.11836569350E+01	+1.13278666634E+02	-8.22303146218E-01	-1.20611642461E+02
8.31400000000E+08	-7.24178722836E-01	-1.27213987444E+02	-6.09550665950E+01	+1.14658129226E+02	-6.10849269023E+01	+1.14243991764E+02	-8.27300723539E-01	-1.20722016089E+02
8.31500000000E+08	-7.32191601367E-01	-1.27318754554E+02	-6.08793836021E+01	+1.13698460983E+02	-6.09767338598E+01	+1.13422604633E+02	-8.32169149155E-01	-1.20832141789E+02
8.31600000000E+08	-7.40874861570E-01	-1.27421952754E+02	-6.09071146691E+01	+1.12964979786E+02	-6.10267277469E+01	+1.12698653702E+02	-8.37858603683E-01	-1.20944190793E+02
8.31700000000E+08	-7.49829665453E-01	-1.27516635599E+02	-6.08403148697E+01	+1.12721337848E+02	-6.09447788321E+01	+1.12330599336E+02	-8.45116063738E-01	-1.21054752076E+02
8.31800000000E+08	-7.58426711490E-01	-1.27606383579E+02	-6.08590126973E+01	+1.10747480255E+02	-6.09505922625E+01	+1.10571566325E+02	-8.52441092653E-01	-1.21162951098E+02
8.31900000000E+08	-7.66911138065E-01	-1.27694957514E+02	-6.10851886847E+01	+1.09755927432E+02	-6.12309211036E+01	+1.09396726862E+02	-8.59699870721E-01	-1.21263466167E+02
8.32000000000E+08	-7.74792840922E-01	-1.27776958074E+02	-6.12633429667E+01	+1.10143584072E+02	-6.13599459954E+01	+1.09772000448E+02	-8.67045242815E-01	-1.21360702048E+02
8.32100000000E+08	-7.82579990085E-01	-1.27860760772E+02	-6.13528182149E+01	+1.09785660400E+02	-6.14670290757E+01	+1.09594194482E+02	-8.73209583204E-01	-1.21456952552E+02
8.32200000000E+08	-7.89936869261E-01	-1.27943354144E+02	-6.15626097543E+01	+1.10429911290E+02	-6.16942505527E+01	+1.10029291875E+02	-8.79162280457E-01	-1.21554317091E+02
8.32300000000E+08	-7.97061367716E-01	-1.28022282782E+02	-6.14751687795E+01	+1.11015440925E+02	-6.15548929568E+01	+1.10529527553E+02	-8.85174605771E-01	-1.21654078538E+02
8.32400000000E+08	-8.03962995028E-01	-1.28102212098E+02	-6.15858256280E+01	+1.09133827393E+02	-6.16951824964E+01	+1.09120184478E+02	-8.90968249943E-01	-1.21759840415E+02
8.32500000000E+08	-8.10942788680E-01	-1.28182396517E+02	-6.18861492724E+01	+1.09533700977E+02	-6.19325072265E+01	+1.09590639085E+02	-8.96618651289E-01	-1.21862280620E+02
8.32600000000E+08	-8.17280946247E-01	-1.28254416786E+02	-6.19418408664E+01	+1.09897592318E+02	-6.20225604577E+01	+1.09948493944E+02	-9.02496055848E-01	-1.21969351056E+02
8.32700000000E+08	-8.23135788663E-01	-1.28325786216E+02	-6.20906143518E+01	+1.10367705416E+02	-6.22172426458E+01	+1.09838889199E+02	-9.08952870338E-01	-1.22079295128E+02
8.32800000000E+08	-8.28172984183E-01	-1.28398305283E+02	-6.23735154366E+01	+1.11842780504E+02	-6.25102291678E+01	+1.12028975006E+02	-9.15602288886E-01	-1.22191410598E+02
8.32900000000E+08	-8.31957335261E-01	-1.28471386800E+02	-6.22690809467E+01	+1.15033665330E+02	-6.23648502657E+01	+1.14496945117E+02	-9.22298839709E-01	-1.22300165042E+02
8.33000000000E+08	-8.35021233230E-01	-1.28544828220E+02	-6.19208477978E+01	+1.15192597205E+02	-6.20382602828E+01	+1.15315492092E+02	-9.29288299679E-01	-1.22411335809E+02
8.33100000000E+08	-8.37210543155E-01	-1.28625494010E+02	-6.16689741125E+01	+1.14136995855E+02	-6.17697652812E+01	+1.13992621601E+02	-9.36634740664E-01	-1.22522806501E+02
8.33200000000E+08	-8.39122001382E-01	-1.28711254184E+02	-6.16042252836E+01	+1.12295168448E+02	-6.17265746848E+01	+1.12027998981E+02	-9.43404812170E-01	-1.22635258119E+02
8.33300000000E+08	-8.40649617727E-01	-1.28805569813E+02	-6.17658886762E+01	+1.11076043941E+02	-6.18702349371E+01	+1.10936697398E+02	-9.50861603683E-01	-1.22750893351E+02
8.33400000000E+08	-8.42379233609E-01	-1.28903169917E+02	-6.20496456306E+01	+1.10313693104E+02	-6.21191255350E+01	+1.10071178340E+02	-9.59325028700E-01	-1.22867673825E+02
8.33500000000E+08	-8.44706172811E-01	-1.29012637059E+02	-6.21257840514E+01	+1.11486885378E+02	-6.22687632318E+01	+1.11197674615E+02	-9.68240225404E-01	-1.22983071061E+02
8.33600000000E+08	-8.47847697108E-01	-1.29123561250E+02	-6.20992621832E+01	+1.10962239781E+02	-6.22414326519E+01	+1.10828697231E+02	-9.76923944864E-01	-1.23096011710E+02
8.33700000000E+08	-8.51971264935E-01	-1.29232070622E+02	-6.22822472957E+01	+1.10286114099E+02	-6.23567657883E+01	+1.09951404260E+02	-9.85796672753E-01	-1.23206520413E+02
8.33800000000E+08	-8.56647884811E-01	-1.29338223205E+02	-6.25315798119E+01	+1.09677576489E+02	-6.26608665269E+01	+1.09668101874E+02	-9.94799145295E-01	-1.23320919905E+02
8.33900000000E+08	-8.60453718239E-01	-1.29439172820E+02	-6.28341677598E+01	+1.11514745852E+02	-6.29753957278E+01	+1.11420535272E+02	-1.00403459432E+00	-1.23440722902E+02
8.34000000000E+08	-8.63487457263E-01	-1.29542581806E+02	-6.27589903823E+01	+1.13843324490E+02	-6.29543237933E+01	+1.14350705867E+02	-1.01396226067E+00	-1.23562247848E+02
8.34100000000E+08	-8.66614755467E-01	-1.29652469563E+02	-6.23929466890E+01	+1.14404670632E+02	-6.25172720106E+01	+1.14300813091E+02	-1.02527464735E+00	-1.23680471954E+02
8.34200000000E+08	-8.69380295722E-01	-1.29764834330E+02	-6.23085068326E+01	+1.11537028487E+02	-6.24164303053E+01	+1.11614960573E+02	-1.03713905571E+00	-1.23796826578E+02
8.34300000000E+08	-8.72296385759E-01	-1.29883795039E+02	-6.25064369227E+01	+1.10504331685E+02	-6.26538126813E+01	+1.10461782624E+02	-1.04949562857E+00	-1.23907823022E+02
8.34400000000E+08	-8.75690007181E-01	-1.30009378743E+02	-6.26525188201E+01	+1.09459864940E+02	-6.27738698236E+01	+1.09249212085E+02	-1.06269098630E+00	-1.24013078741E+02
8.34500000000E+08	-8.79427068936E-01	-1.30136966432E+02	-6.28865873750E+01	+1.07697540392E+02	-6.30551672739E+01	+1.07584207593E+02	-1.07607984772E+00	-1.24110803432E+02
8.34600000000E+08	-8.83704342479E-01	-1.30267589725E+02	-6.33514625482E+01	+1.07488533856E+02	-6.34671775589E+01	+1.07095773902E+02	-1.08839113465E+00	-1.24202840667E+02
8.34700000000E+08	-8.88945527504E-01	-1.30397009876E+02	-6.37117739767E+01	+1.07041770162E+02	-6.38439890229E+01	+1.06807183668E+02	-1.09958199143E+00	-1.24294817057E+02
8.34800000000E+08	-8.93820556519E-01	-1.30528789504E+02	-6.42140681678E+01	+1.07065401891E+02	-6.43228776308E+01	+1.06715818741E+02	-1.11076711582E+00	-1.24392836800E+02
8.34900000000E+08	-8.99430106885E-01	-1.30666204909E+02	-6.48147761486E+01	+1.08493682488E+02	-6.49895575926E+01	+1.07630003318E+02	-1.12217753196E+00	-1.24495668053E+02
8.35000000000E+08	-9.05699222147E-01	-1.30801173455E+02	-6.54692284976E+01	+1.11166835007E+02	-6.56355410852E+01	+1.10785038602E+02	-1.13487021999E+00	-1.24603716858E+02
8.35100000000E+08	-9.12423107649E-01	-1.30937984883E+02	-6.58951020796E+01	+1.16703890269E+02	-6.61124345523E+01	+1.16936679469E+02	-1.14910499679E+00	-1.24710752378E+02
8.35200000000E+08	-9.18747592946E-01	-1.31070656178E+02	-6.55539849741E+01	+1.21517942912E+02	-6.57816563451E+01	+1.21466246249E+02	-1.16509945443E+00	-1.24805990357E+02
8.35300000000E+08	-9.24518719458E-01	-1.31211051287E+02	-6.53320750214E+01	+1.20990993785E+02	-6.55273067030E+01	+1.21230638319E+02	-1.18124824398E+00	-1.24892294902E+02
8.35400000000E+08	-9.30900852808E-01	-1.31361177699E+02	-6.58577663657E+01	+1.20999186615E+02	-6.60081115930E+01	+1.20917494374E+02	-1.19677019173E+00	-1.24964342671E+02
8.35500000000E+08	-9.38084404335E-01	-1.31516020888E+02	-6.62900567472E+01	+1.23621540404E+02	-6.64948845157E+01	+1.23544818281E+02	-1.21198302685E+00	-1.25035365534E+02
