! Created Wed Jan 17 14:01:23 2014
!Reference plane is at the edge of Pin2 (RFin) and Pin7 (RFout)
# ghz S db R 50
! 2 Port Network Data from actual measurement using a connectorized TRL calibration covering 0.1-20 GHz, processed and fitted to remove calibration discontinuities
! freq  dbS11  angS11  dbS21  angS21  dbS12  angS12  dbS22  angS22  
!		
								
0.01	-7.65E-01	-1.45E+01	3.14E+01	1.66E+02	-4.09E+01	-2.55E+01	-5.506027704	3.93156737
0.02	-5.14E-03	7.073621775	3.32E+01	-1.79E+02	-3.64E+01	-1.60E+02	-8.796111829	2.04E+01
0.03	-1.043610864	-4.903910596	3.25E+01	1.72E+02	-4.47E+01	1.49E+02	-9.375202844	5.261277202
0.04	-4.24E-01	-8.823631474	3.33E+01	1.70E+02	-4.13E+01	1.10E+02	-9.050950933	4.321912925
0.05	-8.67E-01	-1.53E+01	3.29E+01	1.63E+02	-4.45E+01	9.21E+01	-8.302030447	2.25E-01
0.06	-1.096045372	-1.63E+01	3.28E+01	1.59E+02	-4.09E+01	8.23E+01	-7.46988595	-8.550010753
0.07	-5.84E-01	-1.56E+01	3.30E+01	1.59E+02	-4.43E+01	1.24E+02	-8.735172732	-4.425917516
0.08	-8.71E-01	-1.94E+01	3.28E+01	1.56E+02	-4.18E+01	9.44E+01	-8.573957305	2.60887943
0.09	-1.639714938	-2.06E+01	3.25E+01	1.53E+02	-4.13E+01	8.62E+01	-7.701706345	-2.904103582
0.1	-1.612198296	-2.27E+01	3.22E+01	1.51E+02	-4.24E+01	8.76E+01	-7.480450656	-1.03E+01
0.11	-2.347274961	-2.31E+01	3.17E+01	1.49E+02	-3.96E+01	6.78E+01	-7.297915781	-1.198298724
0.12	-2.382691719	-2.76E+01	3.17E+01	1.44E+02	-4.06E+01	7.47E+01	-7.323130913	6.251419054
0.13	-2.385650306	-2.65E+01	3.17E+01	1.43E+02	-3.85E+01	6.89E+01	-7.760725007	1.79E-01
0.14	-2.601541898	-2.80E+01	3.15E+01	1.41E+02	-3.73E+01	7.43E+01	-7.688443392	1.328750298
0.15	-2.843749305	-3.04E+01	3.14E+01	1.37E+02	-3.78E+01	7.52E+01	-8.073444706	-1.538926097
0.16	-3.503556288	-3.11E+01	3.09E+01	1.36E+02	-3.76E+01	7.35E+01	-7.868648728	2.245592354
0.17	-3.689512559	-2.97E+01	3.06E+01	1.36E+02	-3.70E+01	6.76E+01	-8.085734746	-4.618429541
0.18	-4.282880748	-2.98E+01	3.03E+01	1.34E+02	-3.72E+01	6.91E+01	-7.592454133	-1.899458484
0.19	-4.390556399	-2.83E+01	3.00E+01	1.34E+02	-3.64E+01	6.78E+01	-7.948921653	-4.585718091
0.2	-4.330225069	-3.09E+01	3.01E+01	1.30E+02	-3.68E+01	7.02E+01	-7.643357898	3.59E-01
0.21	-4.890896938	-2.92E+01	2.97E+01	1.31E+02	-3.61E+01	6.72E+01	-7.718000265	-2.201498157
0.22	-4.893112305	-2.97E+01	2.96E+01	1.29E+02	-3.49E+01	7.51E+01	-7.424095559	5.69E-01
0.23	-5.447657437	-3.04E+01	2.90E+01	1.26E+02	-3.54E+01	6.59E+01	-7.56869422	2.715041664
0.24	-5.44888371	-2.85E+01	2.90E+01	1.27E+02	-3.50E+01	6.65E+01	-7.670908084	5.88E-01
0.25	-5.618008058	-2.84E+01	2.87E+01	1.25E+02	-3.43E+01	6.79E+01	-7.637439032	8.39E-01
0.26	-5.963200607	-2.78E+01	2.85E+01	1.24E+02	-3.41E+01	6.55E+01	-7.71309657	-1.502731312
0.27	-6.037365768	-2.76E+01	2.83E+01	1.23E+02	-3.38E+01	6.44E+01	-7.376100092	-1.75E-01
0.28	-6.328919015	-2.80E+01	2.81E+01	1.21E+02	-3.38E+01	6.53E+01	-7.34400734	1.728724509
0.29	-6.513944204	-2.51E+01	2.78E+01	1.21E+02	-3.36E+01	6.13E+01	-8.02223712	4.071900161
0.3	-6.696135559	-2.47E+01	2.75E+01	1.20E+02	-3.35E+01	6.30E+01	-7.840960363	2.650908342
0.31	-6.609863218	-2.37E+01	2.75E+01	1.20E+02	-3.34E+01	6.37E+01	-7.288187927	9.84E-01
0.32	-6.640195741	-2.30E+01	2.73E+01	1.19E+02	-3.31E+01	6.31E+01	-7.710191073	2.369870506
0.33	-6.698055099	-2.32E+01	2.72E+01	1.17E+02	-3.30E+01	6.34E+01	-7.396025996	1.976743066
0.34	-6.822276396	-2.24E+01	2.69E+01	1.17E+02	-3.30E+01	6.24E+01	-7.747445086	-5.94E-01
0.35	-7.005059224	-2.06E+01	2.67E+01	1.17E+02	-3.25E+01	6.04E+01	-7.358563424	1.613258878
0.36	-7.134746308	-2.05E+01	2.65E+01	1.16E+02	-3.26E+01	6.09E+01	-7.326950326	1.700367241
0.37	-6.992748582	-1.97E+01	2.64E+01	1.15E+02	-3.19E+01	5.85E+01	-7.433303199	1.094935423
0.38	-7.355217428	-1.47E+01	2.60E+01	1.14E+02	-3.20E+01	5.71E+01	-7.174693254	1.849408509
0.39	-7.060234602	-1.46E+01	2.59E+01	1.13E+02	-3.19E+01	5.82E+01	-7.231309615	3.203187423
0.4	-7.145671432	-1.35E+01	2.57E+01	1.12E+02	-3.17E+01	5.90E+01	-7.284615385	2.26289529
0.41	-7.084387474	-1.29E+01	2.56E+01	1.11E+02	-3.17E+01	5.76E+01	-7.226818619	2.799324657
0.42	-7.118191721	-1.27E+01	2.54E+01	1.11E+02	-3.18E+01	5.90E+01	-7.172883852	3.416030654
0.43	-7.133995424	-1.21E+01	2.54E+01	1.10E+02	-3.15E+01	5.54E+01	-6.786649281	-7.40E-01
0.44	-7.210617916	-1.18E+01	2.51E+01	1.09E+02	-3.15E+01	5.71E+01	-6.946596545	9.12E-02
0.45	-7.158005749	-1.04E+01	2.49E+01	1.10E+02	-3.11E+01	5.58E+01	-6.835616734	1.051908719
0.46	-7.22327158	-1.06E+01	2.48E+01	1.09E+02	-3.12E+01	5.65E+01	-6.948493791	2.273145143
0.47	-7.005008512	-1.01E+01	2.48E+01	1.08E+02	-3.12E+01	5.64E+01	-6.819845578	1.542593578
0.48	-6.857053675	-9.881758004	2.47E+01	1.08E+02	-3.13E+01	5.53E+01	-6.817701205	8.60E-01
0.49	-6.955072266	-8.464889982	2.45E+01	1.08E+02	-3.09E+01	5.45E+01	-6.990688368	-1.347417294
0.5	-6.851292995	-9.629759159	2.43E+01	1.06E+02	-3.08E+01	5.41E+01	-6.675255562	-6.96E-01
0.51	-6.828342572	-8.848117421	2.42E+01	1.06E+02	-3.09E+01	5.40E+01	-6.992525574	1.542016372
0.52	-6.842606079	-8.141914493	2.39E+01	1.06E+02	-3.06E+01	5.34E+01	-6.835102422	-1.729369688
0.53	-6.810520587	-7.714461723	2.38E+01	1.05E+02	-3.07E+01	5.43E+01	-6.908632604	9.14E-02
0.54	-6.799498667	-7.289998415	2.37E+01	1.05E+02	-3.07E+01	5.40E+01	-6.572204421	-7.57E-01
0.55	-6.67109962	-7.43310513	2.35E+01	1.04E+02	-3.04E+01	5.38E+01	-6.473028284	5.46E-01
0.56	-6.525654486	-7.223227536	2.35E+01	1.04E+02	-3.05E+01	5.36E+01	-6.392972573	-2.115022844
0.57	-6.608725171	-7.305079849	2.32E+01	1.04E+02	-3.06E+01	5.30E+01	-6.676519217	-1.825009947
0.58	-6.438836541	-7.33679209	2.32E+01	1.03E+02	-3.05E+01	5.29E+01	-6.586744945	-1.432412503
0.59	-6.512910766	-7.273964433	2.29E+01	1.03E+02	-3.03E+01	5.34E+01	-6.331326099	-1.63E-01
0.6	-6.41646914	-6.822402545	2.29E+01	1.03E+02	-3.02E+01	5.27E+01	-6.46598527	-2.059814137
0.61	-6.472343436	-7.092513526	2.27E+01	1.02E+02	-3.03E+01	5.18E+01	-6.472332201	-1.745151392
0.62	-6.411440931	-7.500097157	2.26E+01	1.02E+02	-3.01E+01	5.25E+01	-6.368864549	-2.296973807
0.63	-6.338482103	-7.765091911	2.25E+01	1.01E+02	-3.00E+01	5.25E+01	-6.208136994	-2.888797362
0.64	-6.225063954	-7.163734857	2.24E+01	1.01E+02	-2.99E+01	5.32E+01	-6.259075631	-1.437006588
0.65	-6.283524762	-6.967671139	2.22E+01	1.01E+02	-2.99E+01	5.20E+01	-6.055973053	-3.170606106
0.66	-6.215631361	-6.990737415	2.21E+01	1.00E+02	-2.99E+01	5.08E+01	-6.299249262	-2.620467835
0.67	-6.134671505	-7.091806051	2.21E+01	1.00E+02	-2.98E+01	5.23E+01	-6.277079706	-2.981530522
0.68	-6.078474374	-8.108475622	2.19E+01	9.93E+01	-2.98E+01	5.12E+01	-6.127121861	-3.062687742
0.69	-6.097762256	-6.798395668	2.18E+01	9.97E+01	-2.95E+01	5.22E+01	-6.39329705	-2.641384025
0.7	-6.051398971	-7.226486582	2.17E+01	9.89E+01	-2.97E+01	5.19E+01	-6.000497056	-4.156914608
0.71	-6.021977749	-7.138680576	2.16E+01	9.89E+01	-2.96E+01	5.21E+01	-5.97803262	-4.351227732
0.72	-5.966067198	-7.632517868	2.14E+01	9.84E+01	-2.95E+01	5.16E+01	-6.08230261	-4.424632424
0.73	-5.873000592	-7.552039643	2.14E+01	9.81E+01	-2.93E+01	5.08E+01	-6.13330246	-4.195133296
0.74	-5.894292339	-7.73861392	2.12E+01	9.78E+01	-2.94E+01	5.12E+01	-6.029337592	-3.59844908
0.75	-5.903949685	-7.353794599	2.11E+01	9.78E+01	-2.94E+01	5.13E+01	-5.846701267	-5.178903738
0.76	-5.877038514	-7.614543059	2.10E+01	9.74E+01	-2.93E+01	5.10E+01	-5.982238669	-5.411441369
0.77	-5.85245288	-7.64143811	2.08E+01	9.71E+01	-2.93E+01	5.04E+01	-5.933963183	-3.866026962
0.78	-5.766286997	-7.771455246	2.08E+01	9.69E+01	-2.93E+01	5.12E+01	-5.730543426	-4.628869801
0.79	-5.816156303	-7.946359503	2.07E+01	9.64E+01	-2.91E+01	5.26E+01	-5.958163117	-5.366067948
0.8	-5.821554634	-7.933754344	2.05E+01	9.63E+01	-2.91E+01	5.18E+01	-5.829628135	-4.109949098
0.81	-5.651564188	-7.895000377	2.05E+01	9.60E+01	-2.90E+01	5.15E+01	-5.794441629	-5.926484224
0.82	-5.615080647	-8.227517793	2.04E+01	9.57E+01	-2.90E+01	5.09E+01	-5.757860906	-4.750789346
0.83	-5.642044746	-8.591463017	2.03E+01	9.54E+01	-2.90E+01	5.02E+01	-5.604976549	-4.246410019
0.84	-5.607059404	-8.493667302	2.02E+01	9.53E+01	-2.90E+01	5.05E+01	-5.697072214	-5.300772668
0.85	-5.524821774	-8.403674888	2.01E+01	9.53E+01	-2.88E+01	5.20E+01	-5.728803306	-5.736969422
0.86	-5.605542131	-8.570039121	2.00E+01	9.48E+01	-2.88E+01	5.12E+01	-5.667231021	-6.694952122
0.87	-5.521380608	-8.816820027	1.99E+01	9.45E+01	-2.88E+01	5.23E+01	-5.657460044	-7.72508349
0.88	-5.426798485	-9.080787838	1.99E+01	9.41E+01	-2.88E+01	5.10E+01	-5.658574506	-6.314381941
0.89	-5.494229754	-8.842977273	1.97E+01	9.41E+01	-2.87E+01	5.18E+01	-5.689854009	-6.452627213
0.9	-5.444564221	-9.155533128	1.96E+01	9.36E+01	-2.85E+01	5.21E+01	-5.68889986	-7.145883413
0.91	-5.444374049	-8.988713603	1.95E+01	9.37E+01	-2.89E+01	5.22E+01	-5.579704599	-7.085840078
0.92	-5.44677218	-9.356022909	1.94E+01	9.32E+01	-2.88E+01	5.17E+01	-5.639953845	-7.55318313
0.93	-5.387436479	-9.219216808	1.94E+01	9.34E+01	-2.85E+01	5.21E+01	-5.563351875	-7.687686705
0.94	-5.313592072	-9.545943925	1.93E+01	9.29E+01	-2.85E+01	5.05E+01	-5.577886032	-7.279466774
0.95	-5.368215195	-9.583172496	1.92E+01	9.29E+01	-2.86E+01	5.10E+01	-5.495151625	-7.552614777
0.96	-5.368036323	-9.929638427	1.91E+01	9.26E+01	-2.85E+01	5.03E+01	-5.524308347	-7.604628091
0.97	-5.340495668	-9.94722665	1.90E+01	9.23E+01	-2.86E+01	5.18E+01	-5.49045085	-8.430580072
0.98	-5.309882923	-9.986675906	1.89E+01	9.21E+01	-2.85E+01	5.18E+01	-5.46590186	-7.906965779
0.99	-5.262368081	-1.01E+01	1.89E+01	9.18E+01	-2.84E+01	5.22E+01	-5.471460573	-8.708675766
1	-5.178446859	-1.06E+01	1.88E+01	9.15E+01	-2.83E+01	5.23E+01	-5.509017176	-8.246782125
1.01	-5.246921963	-1.08E+01	1.87E+01	9.13E+01	-2.83E+01	5.18E+01	-5.400094514	-8.256400061
1.02	-5.228277928	-1.04E+01	1.86E+01	9.14E+01	-2.83E+01	5.17E+01	-5.378933423	-7.998484364
1.03	-5.194803053	-1.14E+01	1.85E+01	9.06E+01	-2.82E+01	5.21E+01	-5.442338089	-8.673643328
1.04	-5.16258896	-1.06E+01	1.84E+01	9.12E+01	-2.82E+01	5.17E+01	-5.36611972	-8.350825497
1.05	-5.169636833	-1.13E+01	1.83E+01	9.06E+01	-2.82E+01	5.22E+01	-5.348584233	-8.919832581
1.06	-5.06444153	-1.12E+01	1.83E+01	9.03E+01	-2.81E+01	5.17E+01	-5.307371568	-9.224515355
1.07	-5.144904321	-1.12E+01	1.82E+01	9.03E+01	-2.82E+01	5.22E+01	-5.430631739	-8.839926786
1.08	-5.05460185	-1.14E+01	1.81E+01	9.02E+01	-2.81E+01	5.23E+01	-5.344685387	-9.175667871
1.09	-5.062589376	-1.16E+01	1.80E+01	8.97E+01	-2.80E+01	5.15E+01	-5.327395902	-9.894163227
1.1	-5.019323442	-1.17E+01	1.79E+01	8.96E+01	-2.80E+01	5.16E+01	-5.234922332	-9.425361831
1.11	-4.997258504	-1.14E+01	1.79E+01	8.96E+01	-2.81E+01	5.24E+01	-5.278828445	-9.798657172
1.12	-4.949817872	-1.18E+01	1.78E+01	8.94E+01	-2.79E+01	5.20E+01	-5.290559786	-1.02E+01
1.13	-4.979776586	-1.18E+01	1.77E+01	8.92E+01	-2.79E+01	5.19E+01	-5.24004256	-1.03E+01
1.14	-4.995011076	-1.24E+01	1.76E+01	8.86E+01	-2.79E+01	5.18E+01	-5.22431362	-1.04E+01
1.15	-4.94036048	-1.23E+01	1.76E+01	8.88E+01	-2.78E+01	5.18E+01	-5.09545136	-9.867348133
1.16	-4.905236424	-1.25E+01	1.75E+01	8.85E+01	-2.79E+01	5.24E+01	-5.151975495	-1.03E+01
1.17	-4.889340235	-1.27E+01	1.74E+01	8.84E+01	-2.79E+01	5.22E+01	-5.16286398	-1.04E+01
1.18	-4.845719717	-1.29E+01	1.73E+01	8.81E+01	-2.79E+01	5.29E+01	-5.168312233	-1.09E+01
1.19	-4.88317553	-1.29E+01	1.73E+01	8.82E+01	-2.78E+01	5.23E+01	-5.130355121	-1.04E+01
1.2	-4.858644627	-1.30E+01	1.72E+01	8.79E+01	-2.77E+01	5.28E+01	-5.140088949	-1.11E+01
1.21	-4.815632425	-1.31E+01	1.72E+01	8.77E+01	-2.76E+01	5.26E+01	-5.174698522	-1.08E+01
1.22	-4.805960687	-1.32E+01	1.70E+01	8.74E+01	-2.77E+01	5.33E+01	-5.133789339	-1.07E+01
1.23	-4.814545192	-1.32E+01	1.70E+01	8.76E+01	-2.76E+01	5.22E+01	-5.096116701	-1.15E+01
1.24	-4.834714214	-1.35E+01	1.69E+01	8.68E+01	-2.75E+01	5.29E+01	-5.116486222	-1.12E+01
1.25	-4.784692989	-1.34E+01	1.69E+01	8.70E+01	-2.75E+01	5.22E+01	-5.142035848	-1.17E+01
1.26	-4.764058407	-1.37E+01	1.68E+01	8.68E+01	-2.75E+01	5.30E+01	-5.120899849	-1.18E+01
1.27	-4.743667983	-1.39E+01	1.67E+01	8.65E+01	-2.75E+01	5.25E+01	-5.071035771	-1.18E+01
1.28	-4.739167948	-1.40E+01	1.66E+01	8.64E+01	-2.73E+01	5.30E+01	-5.042087152	-1.21E+01
1.29	-4.717737453	-1.43E+01	1.66E+01	8.62E+01	-2.75E+01	5.30E+01	-5.088169914	-1.20E+01
1.3	-4.665335843	-1.44E+01	1.65E+01	8.62E+01	-2.75E+01	5.31E+01	-5.063197213	-1.18E+01
1.31	-4.703189976	-1.47E+01	1.64E+01	8.59E+01	-2.74E+01	5.26E+01	-4.983557468	-1.18E+01
1.32	-4.658869182	-1.46E+01	1.64E+01	8.60E+01	-2.74E+01	5.32E+01	-4.919989361	-1.22E+01
1.33	-4.638364703	-1.48E+01	1.63E+01	8.57E+01	-2.72E+01	5.31E+01	-4.936047434	-1.25E+01
1.34	-4.605151434	-1.49E+01	1.63E+01	8.56E+01	-2.74E+01	5.34E+01	-4.936332494	-1.18E+01
1.35	-4.636929721	-1.49E+01	1.62E+01	8.54E+01	-2.73E+01	5.31E+01	-4.953497421	-1.16E+01
1.36	-4.609504739	-1.52E+01	1.61E+01	8.52E+01	-2.72E+01	5.38E+01	-4.904096461	-1.22E+01
1.37	-4.595454525	-1.52E+01	1.61E+01	8.52E+01	-2.71E+01	5.39E+01	-4.9068202	-1.21E+01
1.38	-4.602253047	-1.52E+01	1.60E+01	8.50E+01	-2.72E+01	5.37E+01	-4.933323185	-1.24E+01
1.39	-4.57967333	-1.56E+01	1.59E+01	8.46E+01	-2.71E+01	5.36E+01	-5.016815713	-1.22E+01
1.4	-4.596727597	-1.56E+01	1.58E+01	8.45E+01	-2.72E+01	5.41E+01	-4.931657879	-1.28E+01
1.41	-4.520343987	-1.57E+01	1.58E+01	8.44E+01	-2.72E+01	5.32E+01	-4.849740344	-1.25E+01
1.42	-4.560411815	-1.59E+01	1.57E+01	8.43E+01	-2.71E+01	5.38E+01	-4.954873258	-1.33E+01
1.43	-4.531994831	-1.58E+01	1.57E+01	8.43E+01	-2.70E+01	5.29E+01	-4.86909193	-1.28E+01
1.44	-4.512809708	-1.60E+01	1.56E+01	8.41E+01	-2.70E+01	5.37E+01	-4.884553097	-1.28E+01
1.45	-4.501712526	-1.64E+01	1.56E+01	8.37E+01	-2.70E+01	5.35E+01	-4.871491424	-1.34E+01
1.46	-4.47926683	-1.64E+01	1.55E+01	8.37E+01	-2.69E+01	5.40E+01	-4.860472592	-1.34E+01
1.47	-4.46092701	-1.66E+01	1.54E+01	8.35E+01	-2.70E+01	5.38E+01	-4.822588864	-1.33E+01
1.48	-4.431253783	-1.65E+01	1.54E+01	8.35E+01	-2.68E+01	5.36E+01	-4.862540091	-1.35E+01
1.49	-4.452646587	-1.65E+01	1.53E+01	8.34E+01	-2.69E+01	5.37E+01	-4.817899764	-1.32E+01
1.5	-4.417009377	-1.66E+01	1.53E+01	8.34E+01	-2.68E+01	5.45E+01	-4.776910206	-1.41E+01
1.51	-4.425797743	-1.68E+01	1.52E+01	8.32E+01	-2.66E+01	5.42E+01	-4.839011324	-1.35E+01
1.52	-4.408093821	-1.69E+01	1.52E+01	8.30E+01	-2.67E+01	5.39E+01	-4.809063714	-1.38E+01
1.53	-4.366458235	-1.70E+01	1.51E+01	8.29E+01	-2.68E+01	5.37E+01	-4.823398968	-1.43E+01
1.54	-4.403508101	-1.73E+01	1.51E+01	8.27E+01	-2.67E+01	5.43E+01	-4.79104846	-1.43E+01
1.55	-4.397285278	-1.76E+01	1.50E+01	8.24E+01	-2.68E+01	5.40E+01	-4.760836066	-1.42E+01
1.56	-4.374458005	-1.76E+01	1.49E+01	8.24E+01	-2.66E+01	5.51E+01	-4.805934196	-1.43E+01
1.57	-4.345828359	-1.77E+01	1.49E+01	8.23E+01	-2.66E+01	5.47E+01	-4.793240462	-1.46E+01
1.58	-4.335347327	-1.79E+01	1.48E+01	8.20E+01	-2.65E+01	5.48E+01	-4.808145829	-1.48E+01
1.59	-4.2842222	-1.81E+01	1.48E+01	8.19E+01	-2.65E+01	5.49E+01	-4.783312302	-1.48E+01
1.6	-4.301078779	-1.81E+01	1.47E+01	8.19E+01	-2.65E+01	5.46E+01	-4.793247262	-1.47E+01
1.61	-4.282881295	-1.81E+01	1.47E+01	8.17E+01	-2.65E+01	5.44E+01	-4.662929322	-1.49E+01
1.62	-4.275854749	-1.80E+01	1.46E+01	8.15E+01	-2.65E+01	5.52E+01	-4.699844774	-1.47E+01
1.63	-4.264907659	-1.84E+01	1.46E+01	8.12E+01	-2.65E+01	5.46E+01	-4.689379359	-1.49E+01
1.64	-4.228372001	-1.82E+01	1.45E+01	8.13E+01	-2.64E+01	5.49E+01	-4.726163693	-1.49E+01
1.65	-4.26328025	-1.85E+01	1.45E+01	8.10E+01	-2.64E+01	5.52E+01	-4.753445553	-1.53E+01
1.66	-4.255956609	-1.87E+01	1.44E+01	8.07E+01	-2.65E+01	5.53E+01	-4.731228691	-1.58E+01
1.67	-4.208101723	-1.86E+01	1.44E+01	8.06E+01	-2.64E+01	5.50E+01	-4.668948835	-1.56E+01
1.68	-4.209346671	-1.87E+01	1.43E+01	8.06E+01	-2.63E+01	5.52E+01	-4.727060211	-1.54E+01
1.69	-4.219384521	-1.89E+01	1.43E+01	8.04E+01	-2.63E+01	5.56E+01	-4.682889249	-1.59E+01
1.7	-4.227357252	-1.91E+01	1.42E+01	8.03E+01	-2.63E+01	5.52E+01	-4.637836953	-1.59E+01
1.71	-4.212794756	-1.94E+01	1.41E+01	7.99E+01	-2.62E+01	5.53E+01	-4.612465576	-1.60E+01
1.72	-4.186524358	-1.93E+01	1.41E+01	8.00E+01	-2.62E+01	5.54E+01	-4.620036583	-1.60E+01
1.73	-4.159734724	-1.94E+01	1.41E+01	7.99E+01	-2.62E+01	5.57E+01	-4.626670499	-1.64E+01
1.74	-4.161316743	-1.95E+01	1.40E+01	7.98E+01	-2.62E+01	5.54E+01	-4.536000805	-1.58E+01
1.75	-4.145812094	-1.97E+01	1.39E+01	7.97E+01	-2.61E+01	5.53E+01	-4.597822975	-1.59E+01
1.76	-4.172094908	-1.96E+01	1.39E+01	7.96E+01	-2.61E+01	5.46E+01	-4.592942318	-1.61E+01
1.77	-4.1933006	-1.96E+01	1.38E+01	7.95E+01	-2.62E+01	5.55E+01	-4.568129392	-1.61E+01
1.78	-4.134591493	-2.00E+01	1.38E+01	7.93E+01	-2.60E+01	5.49E+01	-4.584281184	-1.62E+01
1.79	-4.161597889	-2.00E+01	1.37E+01	7.92E+01	-2.61E+01	5.58E+01	-4.65078593	-1.64E+01
1.8	-4.120664305	-2.01E+01	1.37E+01	7.90E+01	-2.59E+01	5.58E+01	-4.623601923	-1.65E+01
1.81	-4.122981559	-2.04E+01	1.37E+01	7.88E+01	-2.60E+01	5.55E+01	-4.571461612	-1.67E+01
1.82	-4.110242677	-2.06E+01	1.36E+01	7.86E+01	-2.60E+01	5.57E+01	-4.57600348	-1.72E+01
1.83	-4.075364486	-2.05E+01	1.36E+01	7.88E+01	-2.59E+01	5.58E+01	-4.550867856	-1.72E+01
1.84	-4.092291388	-2.08E+01	1.35E+01	7.85E+01	-2.59E+01	5.53E+01	-4.533857659	-1.71E+01
1.85	-4.068364367	-2.10E+01	1.35E+01	7.83E+01	-2.59E+01	5.54E+01	-4.555979307	-1.73E+01
1.86	-4.075565225	-2.10E+01	1.34E+01	7.83E+01	-2.59E+01	5.58E+01	-4.545378736	-1.74E+01
1.87	-4.045770024	-2.12E+01	1.34E+01	7.82E+01	-2.58E+01	5.56E+01	-4.531354805	-1.74E+01
1.88	-4.035218321	-2.11E+01	1.33E+01	7.81E+01	-2.59E+01	5.57E+01	-4.483168641	-1.74E+01
1.89	-4.026723935	-2.15E+01	1.33E+01	7.78E+01	-2.58E+01	5.58E+01	-4.485144641	-1.79E+01
1.9	-4.023879117	-2.17E+01	1.32E+01	7.78E+01	-2.58E+01	5.60E+01	-4.504128789	-1.70E+01
1.91	-4.029107572	-2.17E+01	1.32E+01	7.79E+01	-2.58E+01	5.55E+01	-4.489722912	-1.73E+01
1.92	-4.017492288	-2.18E+01	1.32E+01	7.78E+01	-2.57E+01	5.59E+01	-4.46546386	-1.75E+01
1.93	-4.030373078	-2.20E+01	1.31E+01	7.76E+01	-2.58E+01	5.57E+01	-4.476879258	-1.75E+01
1.94	-4.008613589	-2.17E+01	1.31E+01	7.80E+01	-2.57E+01	5.58E+01	-4.458925768	-1.77E+01
1.95	-4.013214608	-2.23E+01	1.30E+01	7.74E+01	-2.56E+01	5.59E+01	-4.450254419	-1.78E+01
1.96	-3.979969077	-2.20E+01	1.30E+01	7.76E+01	-2.57E+01	5.56E+01	-4.474114897	-1.79E+01
1.97	-3.925040582	-2.19E+01	1.30E+01	7.77E+01	-2.56E+01	5.56E+01	-4.489797803	-1.80E+01
1.98	-3.973568583	-2.23E+01	1.29E+01	7.73E+01	-2.56E+01	5.57E+01	-4.478936809	-1.80E+01
1.99	-3.946434415	-2.25E+01	1.29E+01	7.71E+01	-2.55E+01	5.57E+01	-4.410976921	-1.87E+01
2	-3.910401088	-2.26E+01	1.28E+01	7.68E+01	-2.55E+01	5.59E+01	-4.475934407	-1.81E+01
2.01	-3.953063644	-2.26E+01	1.28E+01	7.69E+01	-2.55E+01	5.61E+01	-4.428215109	-1.82E+01
2.02	-3.921452464	-2.26E+01	1.27E+01	7.68E+01	-2.55E+01	5.57E+01	-4.412176526	-1.81E+01
2.03	-3.894093047	-2.27E+01	1.27E+01	7.67E+01	-2.55E+01	5.63E+01	-4.441777345	-1.84E+01
2.04	-3.915199942	-2.31E+01	1.27E+01	7.64E+01	-2.54E+01	5.63E+01	-4.444570016	-1.85E+01
2.05	-3.879630562	-2.31E+01	1.26E+01	7.64E+01	-2.54E+01	5.63E+01	-4.416794071	-1.85E+01
2.06	-3.862120154	-2.34E+01	1.26E+01	7.60E+01	-2.54E+01	5.67E+01	-4.414090601	-1.85E+01
2.07	-3.873355913	-2.35E+01	1.26E+01	7.58E+01	-2.53E+01	5.65E+01	-4.418914164	-1.85E+01
2.08	-3.852115438	-2.37E+01	1.25E+01	7.56E+01	-2.53E+01	5.67E+01	-4.385840993	-1.86E+01
2.09	-3.867306211	-2.37E+01	1.25E+01	7.54E+01	-2.52E+01	5.66E+01	-4.410684258	-1.89E+01
2.1	-3.868655567	-2.39E+01	1.24E+01	7.54E+01	-2.53E+01	5.65E+01	-4.403692376	-1.88E+01
2.11	-3.865424008	-2.37E+01	1.24E+01	7.53E+01	-2.53E+01	5.65E+01	-4.414353365	-1.90E+01
2.12	-3.830379426	-2.41E+01	1.24E+01	7.50E+01	-2.54E+01	5.61E+01	-4.410178046	-1.90E+01
2.13	-3.779953151	-2.40E+01	1.23E+01	7.50E+01	-2.52E+01	5.64E+01	-4.412791133	-1.89E+01
2.14	-3.781730641	-2.43E+01	1.23E+01	7.48E+01	-2.51E+01	5.74E+01	-4.431561081	-1.93E+01
2.15	-3.77257528	-2.43E+01	1.23E+01	7.47E+01	-2.51E+01	5.65E+01	-4.427335913	-1.94E+01
2.16	-3.781771073	-2.44E+01	1.22E+01	7.46E+01	-2.52E+01	5.68E+01	-4.395863693	-1.95E+01
2.17	-3.793297092	-2.48E+01	1.21E+01	7.44E+01	-2.51E+01	5.62E+01	-4.324182196	-1.92E+01
2.18	-3.771565161	-2.48E+01	1.21E+01	7.43E+01	-2.51E+01	5.69E+01	-4.383794716	-1.93E+01
2.19	-3.74651005	-2.48E+01	1.21E+01	7.42E+01	-2.51E+01	5.67E+01	-4.388894419	-1.92E+01
